  can0  684   [8]  03 22 01 00 00 00 00 00
  can0  694   [8]  10 27 62 01 00 3B 02 06
  can0  684   [8]  03 22 01 01 00 00 00 00
  can0  694   [8]  03 7F 22 31 55 55 55 55
  can0  684   [8]  03 22 01 02 00 00 00 00
  can0  694   [8]  03 7F 22 31 55 55 55 55
  can0  684   [8]  03 22 01 03 00 00 00 00
  can0  694   [8]  03 7F 22 31 55 55 55 55
  can0  684   [8]  03 22 01 04 00 00 00 00
  can0  694   [8]  03 7F 22 31 55 55 55 55
  can0  684   [8]  03 22 01 05 00 00 00 00
  can0  694   [8]  03 7F 22 31 55 55 55 55
  can0  684   [8]  03 22 01 06 00 00 00 00
  can0  694   [8]  03 7F 22 31 55 55 55 55
  can0  684   [8]  03 22 01 07 00 00 00 00
  can0  694   [8]  03 7F 22 31 55 55 55 55
  can0  684   [8]  03 22 01 08 00 00 00 00
  can0  694   [8]  03 7F 22 31 55 55 55 55
  can0  684   [8]  03 22 01 09 00 00 00 00
  can0  694   [8]  03 7F 22 31 55 55 55 55
  can0  684   [8]  03 22 01 0A 00 00 00 00
  can0  694   [8]  03 7F 22 31 55 55 55 55
  can0  684   [8]  03 22 01 0B 00 00 00 00
  can0  694   [8]  03 7F 22 31 55 55 55 55
  can0  684   [8]  03 22 01 0C 00 00 00 00
  can0  694   [8]  03 7F 22 31 55 55 55 55
  can0  684   [8]  03 22 01 0D 00 00 00 00
  can0  694   [8]  03 7F 22 31 55 55 55 55
  can0  684   [8]  03 22 01 0E 00 00 00 00
  can0  694   [8]  03 7F 22 31 55 55 55 55
  can0  684   [8]  03 22 01 0F 00 00 00 00
  can0  694   [8]  03 7F 22 31 55 55 55 55
  can0  684   [8]  03 22 01 10 00 00 00 00
  can0  694   [8]  03 7F 22 31 55 55 55 55
  can0  684   [8]  03 22 01 11 00 00 00 00
  can0  694   [8]  03 7F 22 31 55 55 55 55
  can0  684   [8]  03 22 01 12 00 00 00 00
  can0  694   [8]  03 7F 22 31 55 55 55 55
  can0  684   [8]  03 22 01 13 00 00 00 00
  can0  694   [8]  03 7F 22 31 55 55 55 55
  can0  684   [8]  03 22 01 14 00 00 00 00
  can0  694   [8]  03 7F 22 31 55 55 55 55
  can0  684   [8]  03 22 01 15 00 00 00 00
  can0  694   [8]  03 7F 22 31 55 55 55 55
  can0  684   [8]  03 22 01 16 00 00 00 00
  can0  694   [8]  03 7F 22 31 55 55 55 55
  can0  684   [8]  03 22 01 17 00 00 00 00
  can0  694   [8]  03 7F 22 31 55 55 55 55
  can0  684   [8]  03 22 01 18 00 00 00 00
  can0  694   [8]  03 7F 22 31 55 55 55 55
  can0  684   [8]  03 22 01 19 00 00 00 00
  can0  694   [8]  03 7F 22 31 55 55 55 55
  can0  684   [8]  03 22 01 1A 00 00 00 00
  can0  694   [8]  03 7F 22 31 55 55 55 55
  can0  684   [8]  03 22 01 1B 00 00 00 00
  can0  694   [8]  03 7F 22 31 55 55 55 55
  can0  684   [8]  03 22 01 1C 00 00 00 00
  can0  694   [8]  03 7F 22 31 55 55 55 55
  can0  684   [8]  03 22 01 1D 00 00 00 00
  can0  694   [8]  03 7F 22 31 55 55 55 55
  can0  684   [8]  03 22 01 1E 00 00 00 00
  can0  694   [8]  03 7F 22 31 55 55 55 55
  can0  684   [8]  03 22 01 1F 00 00 00 00
  can0  694   [8]  03 7F 22 31 55 55 55 55
  can0  684   [8]  03 22 01 20 00 00 00 00
  can0  694   [8]  03 7F 22 31 55 55 55 55
  can0  684   [8]  03 22 01 21 00 00 00 00
  can0  694   [8]  03 7F 22 31 55 55 55 55
  can0  684   [8]  03 22 01 22 00 00 00 00
  can0  694   [8]  03 7F 22 31 55 55 55 55
  can0  684   [8]  03 22 01 23 00 00 00 00
  can0  694   [8]  03 7F 22 31 55 55 55 55
  can0  684   [8]  03 22 01 24 00 00 00 00
  can0  694   [8]  03 7F 22 31 55 55 55 55
  can0  684   [8]  03 22 01 25 00 00 00 00
  can0  694   [8]  03 7F 22 31 55 55 55 55
  can0  684   [8]  03 22 01 26 00 00 00 00
  can0  694   [8]  03 7F 22 31 55 55 55 55
  can0  684   [8]  03 22 01 27 00 00 00 00
  can0  694   [8]  03 7F 22 31 55 55 55 55
  can0  684   [8]  03 22 01 28 00 00 00 00
  can0  694   [8]  03 7F 22 31 55 55 55 55
  can0  684   [8]  03 22 01 29 00 00 00 00
  can0  694   [8]  03 7F 22 31 55 55 55 55
  can0  684   [8]  03 22 01 2A 00 00 00 00
  can0  694   [8]  03 7F 22 31 55 55 55 55
  can0  684   [8]  03 22 01 2B 00 00 00 00
  can0  694   [8]  03 7F 22 31 55 55 55 55
  can0  684   [8]  03 22 01 2C 00 00 00 00
  can0  694   [8]  03 7F 22 31 55 55 55 55
  can0  684   [8]  03 22 01 2D 00 00 00 00
  can0  694   [8]  03 7F 22 31 55 55 55 55
  can0  684   [8]  03 22 01 2E 00 00 00 00
  can0  694   [8]  03 7F 22 31 55 55 55 55
  can0  684   [8]  03 22 01 2F 00 00 00 00
  can0  694   [8]  03 7F 22 31 55 55 55 55
  can0  684   [8]  03 22 01 30 00 00 00 00
  can0  694   [8]  03 7F 22 31 55 55 55 55
  can0  684   [8]  03 22 01 31 00 00 00 00
  can0  694   [8]  03 7F 22 31 55 55 55 55
  can0  684   [8]  03 22 01 32 00 00 00 00
  can0  694   [8]  03 7F 22 31 55 55 55 55
  can0  684   [8]  03 22 01 33 00 00 00 00
  can0  694   [8]  03 7F 22 31 55 55 55 55
  can0  684   [8]  03 22 01 34 00 00 00 00
  can0  694   [8]  03 7F 22 31 55 55 55 55
  can0  684   [8]  03 22 01 35 00 00 00 00
  can0  694   [8]  03 7F 22 31 55 55 55 55
  can0  684   [8]  03 22 01 36 00 00 00 00
  can0  694   [8]  03 7F 22 31 55 55 55 55
  can0  684   [8]  03 22 01 37 00 00 00 00
  can0  694   [8]  03 7F 22 31 55 55 55 55
  can0  684   [8]  03 22 01 38 00 00 00 00
  can0  694   [8]  03 7F 22 31 55 55 55 55
  can0  684   [8]  03 22 01 39 00 00 00 00
  can0  694   [8]  03 7F 22 31 55 55 55 55
  can0  684   [8]  03 22 01 3A 00 00 00 00
  can0  694   [8]  03 7F 22 31 55 55 55 55
  can0  684   [8]  03 22 01 3B 00 00 00 00
  can0  694   [8]  03 7F 22 31 55 55 55 55
  can0  684   [8]  03 22 01 3C 00 00 00 00
  can0  694   [8]  03 7F 22 31 55 55 55 55
  can0  684   [8]  03 22 01 3D 00 00 00 00
  can0  694   [8]  03 7F 22 31 55 55 55 55
  can0  684   [8]  03 22 01 3E 00 00 00 00
  can0  694   [8]  03 7F 22 31 55 55 55 55
  can0  684   [8]  03 22 01 3F 00 00 00 00
  can0  694   [8]  03 7F 22 31 55 55 55 55
  can0  684   [8]  03 22 01 40 00 00 00 00
  can0  694   [8]  03 7F 22 31 55 55 55 55
  can0  684   [8]  03 22 01 41 00 00 00 00
  can0  694   [8]  03 7F 22 31 55 55 55 55
  can0  684   [8]  03 22 01 42 00 00 00 00
  can0  694   [8]  03 7F 22 31 55 55 55 55
  can0  684   [8]  03 22 01 43 00 00 00 00
  can0  694   [8]  03 7F 22 31 55 55 55 55
  can0  684   [8]  03 22 01 44 00 00 00 00
  can0  694   [8]  03 7F 22 31 55 55 55 55
  can0  684   [8]  03 22 01 45 00 00 00 00
  can0  694   [8]  03 7F 22 31 55 55 55 55
  can0  684   [8]  03 22 01 46 00 00 00 00
  can0  694   [8]  03 7F 22 31 55 55 55 55
  can0  684   [8]  03 22 01 47 00 00 00 00
  can0  694   [8]  03 7F 22 31 55 55 55 55
  can0  684   [8]  03 22 01 48 00 00 00 00
  can0  694   [8]  03 7F 22 31 55 55 55 55
  can0  684   [8]  03 22 01 49 00 00 00 00
  can0  694   [8]  03 7F 22 31 55 55 55 55
  can0  684   [8]  03 22 01 4A 00 00 00 00
  can0  694   [8]  03 7F 22 31 55 55 55 55
  can0  684   [8]  03 22 01 4B 00 00 00 00
  can0  694   [8]  03 7F 22 31 55 55 55 55
  can0  684   [8]  03 22 01 4C 00 00 00 00
  can0  694   [8]  03 7F 22 31 55 55 55 55
  can0  684   [8]  03 22 01 4D 00 00 00 00
  can0  694   [8]  03 7F 22 31 55 55 55 55
  can0  684   [8]  03 22 01 4E 00 00 00 00
  can0  694   [8]  03 7F 22 31 55 55 55 55
  can0  684   [8]  03 22 01 4F 00 00 00 00
  can0  694   [8]  03 7F 22 31 55 55 55 55
  can0  684   [8]  03 22 01 50 00 00 00 00
  can0  694   [8]  03 7F 22 31 55 55 55 55
  can0  684   [8]  03 22 01 51 00 00 00 00
  can0  694   [8]  03 7F 22 31 55 55 55 55
  can0  684   [8]  03 22 01 52 00 00 00 00
  can0  694   [8]  03 7F 22 31 55 55 55 55
  can0  684   [8]  03 22 01 53 00 00 00 00
  can0  694   [8]  03 7F 22 31 55 55 55 55
  can0  684   [8]  03 22 01 54 00 00 00 00
  can0  694   [8]  03 7F 22 31 55 55 55 55
  can0  684   [8]  03 22 01 55 00 00 00 00
  can0  694   [8]  03 7F 22 31 55 55 55 55
  can0  684   [8]  03 22 01 56 00 00 00 00
  can0  694   [8]  03 7F 22 31 55 55 55 55
  can0  684   [8]  03 22 01 57 00 00 00 00
  can0  694   [8]  03 7F 22 31 55 55 55 55
  can0  684   [8]  03 22 01 58 00 00 00 00
  can0  694   [8]  03 7F 22 31 55 55 55 55
  can0  684   [8]  03 22 01 59 00 00 00 00
  can0  694   [8]  03 7F 22 31 55 55 55 55
  can0  684   [8]  03 22 01 5A 00 00 00 00
  can0  694   [8]  03 7F 22 31 55 55 55 55
  can0  684   [8]  03 22 01 5B 00 00 00 00
  can0  694   [8]  03 7F 22 31 55 55 55 55
  can0  684   [8]  03 22 01 5C 00 00 00 00
  can0  694   [8]  03 7F 22 31 55 55 55 55
  can0  684   [8]  03 22 01 5D 00 00 00 00
  can0  694   [8]  03 7F 22 31 55 55 55 55
  can0  684   [8]  03 22 01 5E 00 00 00 00
  can0  694   [8]  03 7F 22 31 55 55 55 55
  can0  684   [8]  03 22 01 5F 00 00 00 00
  can0  694   [8]  03 7F 22 31 55 55 55 55
  can0  684   [8]  03 22 01 60 00 00 00 00
  can0  694   [8]  03 7F 22 31 55 55 55 55
  can0  684   [8]  03 22 01 61 00 00 00 00
  can0  694   [8]  03 7F 22 31 55 55 55 55
  can0  684   [8]  03 22 01 62 00 00 00 00
  can0  694   [8]  03 7F 22 31 55 55 55 55
  can0  684   [8]  03 22 01 63 00 00 00 00
  can0  694   [8]  03 7F 22 31 55 55 55 55
  can0  684   [8]  03 22 01 64 00 00 00 00
  can0  694   [8]  03 7F 22 31 55 55 55 55
  can0  684   [8]  03 22 01 65 00 00 00 00
  can0  694   [8]  03 7F 22 31 55 55 55 55
  can0  684   [8]  03 22 01 66 00 00 00 00
  can0  694   [8]  03 7F 22 31 55 55 55 55
  can0  684   [8]  03 22 01 67 00 00 00 00
  can0  694   [8]  03 7F 22 31 55 55 55 55
  can0  684   [8]  03 22 01 68 00 00 00 00
  can0  694   [8]  03 7F 22 31 55 55 55 55
  can0  684   [8]  03 22 01 69 00 00 00 00
  can0  694   [8]  03 7F 22 31 55 55 55 55
  can0  684   [8]  03 22 01 6A 00 00 00 00
  can0  694   [8]  03 7F 22 31 55 55 55 55
  can0  684   [8]  03 22 01 6B 00 00 00 00
  can0  694   [8]  03 7F 22 31 55 55 55 55
  can0  684   [8]  03 22 01 6C 00 00 00 00
  can0  694   [8]  03 7F 22 31 55 55 55 55
  can0  684   [8]  03 22 01 6D 00 00 00 00
  can0  694   [8]  03 7F 22 31 55 55 55 55
  can0  684   [8]  03 22 01 6E 00 00 00 00
  can0  694   [8]  03 7F 22 31 55 55 55 55
  can0  684   [8]  03 22 01 6F 00 00 00 00
  can0  694   [8]  03 7F 22 31 55 55 55 55
  can0  684   [8]  03 22 01 70 00 00 00 00
  can0  694   [8]  03 7F 22 31 55 55 55 55
  can0  684   [8]  03 22 01 71 00 00 00 00
  can0  694   [8]  03 7F 22 31 55 55 55 55
  can0  684   [8]  03 22 01 72 00 00 00 00
  can0  694   [8]  03 7F 22 31 55 55 55 55
  can0  684   [8]  03 22 01 73 00 00 00 00
  can0  694   [8]  03 7F 22 31 55 55 55 55
  can0  684   [8]  03 22 01 74 00 00 00 00
  can0  694   [8]  03 7F 22 31 55 55 55 55
  can0  684   [8]  03 22 01 75 00 00 00 00
  can0  694   [8]  03 7F 22 31 55 55 55 55
  can0  684   [8]  03 22 01 76 00 00 00 00
  can0  694   [8]  03 7F 22 31 55 55 55 55
  can0  684   [8]  03 22 01 77 00 00 00 00
  can0  694   [8]  03 7F 22 31 55 55 55 55
  can0  684   [8]  03 22 01 78 00 00 00 00
  can0  694   [8]  03 7F 22 31 55 55 55 55
  can0  684   [8]  03 22 01 79 00 00 00 00
  can0  694   [8]  03 7F 22 31 55 55 55 55
  can0  684   [8]  03 22 01 7A 00 00 00 00
  can0  694   [8]  03 7F 22 31 55 55 55 55
  can0  684   [8]  03 22 01 7B 00 00 00 00
  can0  694   [8]  03 7F 22 31 55 55 55 55
  can0  684   [8]  03 22 01 7C 00 00 00 00
  can0  694   [8]  03 7F 22 31 55 55 55 55
  can0  684   [8]  03 22 01 7D 00 00 00 00
  can0  694   [8]  03 7F 22 31 55 55 55 55
  can0  684   [8]  03 22 01 7E 00 00 00 00
  can0  694   [8]  03 7F 22 31 55 55 55 55
  can0  684   [8]  03 22 01 7F 00 00 00 00
  can0  694   [8]  03 7F 22 31 55 55 55 55
  can0  684   [8]  03 22 01 80 00 00 00 00
  can0  694   [8]  03 7F 22 31 55 55 55 55
  can0  684   [8]  03 22 01 81 00 00 00 00
  can0  694   [8]  03 7F 22 31 55 55 55 55
  can0  684   [8]  03 22 01 82 00 00 00 00
  can0  694   [8]  03 7F 22 31 55 55 55 55
  can0  684   [8]  03 22 01 83 00 00 00 00
  can0  694   [8]  03 7F 22 31 55 55 55 55
  can0  684   [8]  03 22 01 84 00 00 00 00
  can0  694   [8]  03 7F 22 31 55 55 55 55
  can0  684   [8]  03 22 01 85 00 00 00 00
  can0  694   [8]  03 7F 22 31 55 55 55 55
  can0  684   [8]  03 22 01 86 00 00 00 00
  can0  694   [8]  03 7F 22 31 55 55 55 55
  can0  684   [8]  03 22 01 87 00 00 00 00
  can0  694   [8]  03 7F 22 31 55 55 55 55
  can0  684   [8]  03 22 01 88 00 00 00 00
  can0  694   [8]  03 7F 22 31 55 55 55 55
  can0  684   [8]  03 22 01 89 00 00 00 00
  can0  694   [8]  03 7F 22 31 55 55 55 55
  can0  684   [8]  03 22 01 8A 00 00 00 00
  can0  694   [8]  03 7F 22 31 55 55 55 55
  can0  684   [8]  03 22 01 8B 00 00 00 00
  can0  694   [8]  03 7F 22 31 55 55 55 55
  can0  684   [8]  03 22 01 8C 00 00 00 00
  can0  694   [8]  03 7F 22 31 55 55 55 55
  can0  684   [8]  03 22 01 8D 00 00 00 00
  can0  694   [8]  03 7F 22 31 55 55 55 55
  can0  684   [8]  03 22 01 8E 00 00 00 00
  can0  694   [8]  03 7F 22 31 55 55 55 55
  can0  684   [8]  03 22 01 8F 00 00 00 00
  can0  694   [8]  03 7F 22 31 55 55 55 55
  can0  684   [8]  03 22 01 90 00 00 00 00
  can0  694   [8]  03 7F 22 31 55 55 55 55
  can0  684   [8]  03 22 01 91 00 00 00 00
  can0  694   [8]  03 7F 22 31 55 55 55 55
  can0  684   [8]  03 22 01 92 00 00 00 00
  can0  694   [8]  03 7F 22 31 55 55 55 55
  can0  684   [8]  03 22 01 93 00 00 00 00
  can0  694   [8]  03 7F 22 31 55 55 55 55
  can0  684   [8]  03 22 01 94 00 00 00 00
  can0  694   [8]  03 7F 22 31 55 55 55 55
  can0  684   [8]  03 22 01 95 00 00 00 00
  can0  694   [8]  03 7F 22 31 55 55 55 55
  can0  684   [8]  03 22 01 96 00 00 00 00
  can0  694   [8]  03 7F 22 31 55 55 55 55
  can0  684   [8]  03 22 01 97 00 00 00 00
  can0  694   [8]  03 7F 22 31 55 55 55 55
  can0  684   [8]  03 22 01 98 00 00 00 00
  can0  694   [8]  03 7F 22 31 55 55 55 55
  can0  684   [8]  03 22 01 99 00 00 00 00
  can0  694   [8]  03 7F 22 31 55 55 55 55
  can0  684   [8]  03 22 01 9A 00 00 00 00
  can0  694   [8]  03 7F 22 31 55 55 55 55
  can0  684   [8]  03 22 01 9B 00 00 00 00
  can0  694   [8]  03 7F 22 31 55 55 55 55
  can0  684   [8]  03 22 01 9C 00 00 00 00
  can0  694   [8]  03 7F 22 31 55 55 55 55
  can0  684   [8]  03 22 01 9D 00 00 00 00
  can0  694   [8]  03 7F 22 31 55 55 55 55
  can0  684   [8]  03 22 01 9E 00 00 00 00
  can0  694   [8]  03 7F 22 31 55 55 55 55
  can0  684   [8]  03 22 01 9F 00 00 00 00
  can0  694   [8]  03 7F 22 31 55 55 55 55
  can0  684   [8]  03 22 01 A0 00 00 00 00
  can0  694   [8]  03 7F 22 31 55 55 55 55
  can0  684   [8]  03 22 01 A1 00 00 00 00
  can0  694   [8]  03 7F 22 31 55 55 55 55
  can0  684   [8]  03 22 01 A2 00 00 00 00
  can0  694   [8]  03 7F 22 31 55 55 55 55
  can0  684   [8]  03 22 01 A3 00 00 00 00
  can0  694   [8]  03 7F 22 31 55 55 55 55
  can0  684   [8]  03 22 01 A4 00 00 00 00
  can0  694   [8]  03 7F 22 31 55 55 55 55
  can0  684   [8]  03 22 01 A5 00 00 00 00
  can0  694   [8]  03 7F 22 31 55 55 55 55
  can0  684   [8]  03 22 01 A6 00 00 00 00
  can0  694   [8]  03 7F 22 31 55 55 55 55
  can0  684   [8]  03 22 01 A7 00 00 00 00
  can0  694   [8]  03 7F 22 31 55 55 55 55
  can0  684   [8]  03 22 01 A8 00 00 00 00
  can0  694   [8]  03 7F 22 31 55 55 55 55
  can0  684   [8]  03 22 01 A9 00 00 00 00
  can0  694   [8]  03 7F 22 31 55 55 55 55
  can0  684   [8]  03 22 01 AA 00 00 00 00
  can0  694   [8]  03 7F 22 31 55 55 55 55
  can0  684   [8]  03 22 01 AB 00 00 00 00
  can0  694   [8]  03 7F 22 31 55 55 55 55
  can0  684   [8]  03 22 01 AC 00 00 00 00
  can0  694   [8]  03 7F 22 31 55 55 55 55
  can0  684   [8]  03 22 01 AD 00 00 00 00
  can0  694   [8]  03 7F 22 31 55 55 55 55
  can0  684   [8]  03 22 01 AE 00 00 00 00
  can0  694   [8]  03 7F 22 31 55 55 55 55
  can0  684   [8]  03 22 01 AF 00 00 00 00
  can0  694   [8]  03 7F 22 31 55 55 55 55
  can0  684   [8]  03 22 01 B0 00 00 00 00
  can0  694   [8]  03 7F 22 31 55 55 55 55
  can0  684   [8]  03 22 01 B1 00 00 00 00
  can0  694   [8]  03 7F 22 31 55 55 55 55
  can0  684   [8]  03 22 01 B2 00 00 00 00
  can0  694   [8]  03 7F 22 31 55 55 55 55
  can0  684   [8]  03 22 01 B3 00 00 00 00
  can0  694   [8]  03 7F 22 31 55 55 55 55
  can0  684   [8]  03 22 01 B4 00 00 00 00
  can0  694   [8]  03 7F 22 31 55 55 55 55
  can0  684   [8]  03 22 01 B5 00 00 00 00
  can0  694   [8]  03 7F 22 31 55 55 55 55
  can0  684   [8]  03 22 01 B6 00 00 00 00
  can0  694   [8]  03 7F 22 31 55 55 55 55
  can0  684   [8]  03 22 01 B7 00 00 00 00
  can0  694   [8]  03 7F 22 31 55 55 55 55
  can0  684   [8]  03 22 01 B8 00 00 00 00
  can0  694   [8]  03 7F 22 31 55 55 55 55
  can0  684   [8]  03 22 01 B9 00 00 00 00
  can0  694   [8]  03 7F 22 31 55 55 55 55
  can0  684   [8]  03 22 01 BA 00 00 00 00
  can0  694   [8]  03 7F 22 31 55 55 55 55
  can0  684   [8]  03 22 01 BB 00 00 00 00
  can0  694   [8]  03 7F 22 31 55 55 55 55
  can0  684   [8]  03 22 01 BC 00 00 00 00
  can0  694   [8]  03 7F 22 31 55 55 55 55
  can0  684   [8]  03 22 01 BD 00 00 00 00
  can0  694   [8]  03 7F 22 31 55 55 55 55
  can0  684   [8]  03 22 01 BE 00 00 00 00
  can0  694   [8]  03 7F 22 31 55 55 55 55
  can0  684   [8]  03 22 01 BF 00 00 00 00
  can0  694   [8]  03 7F 22 31 55 55 55 55
  can0  684   [8]  03 22 01 C0 00 00 00 00
  can0  694   [8]  03 7F 22 31 55 55 55 55
  can0  684   [8]  03 22 01 C1 00 00 00 00
  can0  694   [8]  03 7F 22 31 55 55 55 55
  can0  684   [8]  03 22 01 C2 00 00 00 00
  can0  694   [8]  03 7F 22 31 55 55 55 55
  can0  684   [8]  03 22 01 C3 00 00 00 00
  can0  694   [8]  03 7F 22 31 55 55 55 55
  can0  684   [8]  03 22 01 C4 00 00 00 00
  can0  694   [8]  03 7F 22 31 55 55 55 55
  can0  684   [8]  03 22 01 C5 00 00 00 00
  can0  694   [8]  03 7F 22 31 55 55 55 55
  can0  684   [8]  03 22 01 C6 00 00 00 00
  can0  694   [8]  03 7F 22 31 55 55 55 55
  can0  684   [8]  03 22 01 C7 00 00 00 00
  can0  694   [8]  03 7F 22 31 55 55 55 55
  can0  684   [8]  03 22 01 C8 00 00 00 00
  can0  694   [8]  03 7F 22 31 55 55 55 55
  can0  684   [8]  03 22 01 C9 00 00 00 00
  can0  694   [8]  03 7F 22 31 55 55 55 55
  can0  684   [8]  03 22 01 CA 00 00 00 00
  can0  694   [8]  03 7F 22 31 55 55 55 55
  can0  684   [8]  03 22 01 CB 00 00 00 00
  can0  694   [8]  03 7F 22 31 55 55 55 55
  can0  684   [8]  03 22 01 CC 00 00 00 00
  can0  694   [8]  03 7F 22 31 55 55 55 55
  can0  684   [8]  03 22 01 CD 00 00 00 00
  can0  694   [8]  03 7F 22 31 55 55 55 55
  can0  684   [8]  03 22 01 CE 00 00 00 00
  can0  694   [8]  03 7F 22 31 55 55 55 55
  can0  684   [8]  03 22 01 CF 00 00 00 00
  can0  694   [8]  03 7F 22 31 55 55 55 55
  can0  684   [8]  03 22 01 D0 00 00 00 00
  can0  694   [8]  03 7F 22 31 55 55 55 55
  can0  684   [8]  03 22 01 D1 00 00 00 00
  can0  694   [8]  03 7F 22 31 55 55 55 55
  can0  684   [8]  03 22 01 D2 00 00 00 00
  can0  694   [8]  03 7F 22 31 55 55 55 55
  can0  684   [8]  03 22 01 D3 00 00 00 00
  can0  694   [8]  03 7F 22 31 55 55 55 55
  can0  684   [8]  03 22 01 D4 00 00 00 00
  can0  694   [8]  03 7F 22 31 55 55 55 55
  can0  684   [8]  03 22 01 D5 00 00 00 00
  can0  694   [8]  03 7F 22 31 55 55 55 55
  can0  684   [8]  03 22 01 D6 00 00 00 00
  can0  694   [8]  03 7F 22 31 55 55 55 55
  can0  684   [8]  03 22 01 D7 00 00 00 00
  can0  694   [8]  03 7F 22 31 55 55 55 55
  can0  684   [8]  03 22 01 D8 00 00 00 00
  can0  694   [8]  03 7F 22 31 55 55 55 55
  can0  684   [8]  03 22 01 D9 00 00 00 00
  can0  694   [8]  03 7F 22 31 55 55 55 55
  can0  684   [8]  03 22 01 DA 00 00 00 00
  can0  694   [8]  03 7F 22 31 55 55 55 55
  can0  684   [8]  03 22 01 DB 00 00 00 00
  can0  694   [8]  03 7F 22 31 55 55 55 55
  can0  684   [8]  03 22 01 DC 00 00 00 00
  can0  694   [8]  03 7F 22 31 55 55 55 55
  can0  684   [8]  03 22 01 DD 00 00 00 00
  can0  694   [8]  03 7F 22 31 55 55 55 55
  can0  684   [8]  03 22 01 DE 00 00 00 00
  can0  694   [8]  03 7F 22 31 55 55 55 55
  can0  684   [8]  03 22 01 DF 00 00 00 00
  can0  694   [8]  03 7F 22 31 55 55 55 55
  can0  684   [8]  03 22 01 E0 00 00 00 00
  can0  694   [8]  03 7F 22 31 55 55 55 55
  can0  684   [8]  03 22 01 E1 00 00 00 00
  can0  694   [8]  03 7F 22 31 55 55 55 55
  can0  684   [8]  03 22 01 E2 00 00 00 00
  can0  694   [8]  03 7F 22 31 55 55 55 55
  can0  684   [8]  03 22 01 E3 00 00 00 00
  can0  694   [8]  03 7F 22 31 55 55 55 55
  can0  684   [8]  03 22 01 E4 00 00 00 00
  can0  694   [8]  03 7F 22 31 55 55 55 55
  can0  684   [8]  03 22 01 E5 00 00 00 00
  can0  694   [8]  03 7F 22 31 55 55 55 55
  can0  684   [8]  03 22 01 E6 00 00 00 00
  can0  694   [8]  03 7F 22 31 55 55 55 55
  can0  684   [8]  03 22 01 E7 00 00 00 00
  can0  694   [8]  03 7F 22 31 55 55 55 55
  can0  684   [8]  03 22 01 E8 00 00 00 00
  can0  694   [8]  03 7F 22 31 55 55 55 55
  can0  684   [8]  03 22 01 E9 00 00 00 00
  can0  694   [8]  03 7F 22 31 55 55 55 55
  can0  684   [8]  03 22 01 EA 00 00 00 00
  can0  694   [8]  03 7F 22 31 55 55 55 55
  can0  684   [8]  03 22 01 EB 00 00 00 00
  can0  694   [8]  03 7F 22 31 55 55 55 55
  can0  684   [8]  03 22 01 EC 00 00 00 00
  can0  694   [8]  03 7F 22 31 55 55 55 55
  can0  684   [8]  03 22 01 ED 00 00 00 00
  can0  694   [8]  03 7F 22 31 55 55 55 55
  can0  684   [8]  03 22 01 EE 00 00 00 00
  can0  694   [8]  03 7F 22 31 55 55 55 55
  can0  684   [8]  03 22 01 EF 00 00 00 00
  can0  694   [8]  03 7F 22 31 55 55 55 55
  can0  684   [8]  03 22 01 F0 00 00 00 00
  can0  694   [8]  03 7F 22 31 55 55 55 55
  can0  684   [8]  03 22 01 F1 00 00 00 00
  can0  694   [8]  03 7F 22 31 55 55 55 55
  can0  684   [8]  03 22 01 F2 00 00 00 00
  can0  694   [8]  03 7F 22 31 55 55 55 55
  can0  684   [8]  03 22 01 F3 00 00 00 00
  can0  694   [8]  03 7F 22 31 55 55 55 55
  can0  684   [8]  03 22 01 F4 00 00 00 00
  can0  694   [8]  03 7F 22 31 55 55 55 55
  can0  684   [8]  03 22 01 F5 00 00 00 00
  can0  694   [8]  03 7F 22 31 55 55 55 55
  can0  684   [8]  03 22 01 F6 00 00 00 00
  can0  694   [8]  03 7F 22 31 55 55 55 55
  can0  684   [8]  03 22 01 F7 00 00 00 00
  can0  694   [8]  03 7F 22 31 55 55 55 55
  can0  684   [8]  03 22 01 F8 00 00 00 00
  can0  694   [8]  03 7F 22 31 55 55 55 55
  can0  684   [8]  03 22 01 F9 00 00 00 00
  can0  694   [8]  03 7F 22 31 55 55 55 55
  can0  684   [8]  03 22 01 FA 00 00 00 00
  can0  694   [8]  03 7F 22 31 55 55 55 55
  can0  684   [8]  03 22 01 FB 00 00 00 00
  can0  694   [8]  03 7F 22 31 55 55 55 55
  can0  684   [8]  03 22 01 FC 00 00 00 00
  can0  694   [8]  03 7F 22 31 55 55 55 55
  can0  684   [8]  03 22 01 FD 00 00 00 00
  can0  694   [8]  03 7F 22 31 55 55 55 55
  can0  684   [8]  03 22 01 FE 00 00 00 00
  can0  694   [8]  03 7F 22 31 55 55 55 55
  can0  684   [8]  03 22 01 FF 00 00 00 00
  can0  694   [8]  03 7F 22 31 55 55 55 55
  can0  684   [8]  03 22 02 00 00 00 00 00
  can0  694   [8]  03 7F 22 31 55 55 55 55
  can0  684   [8]  03 22 02 01 00 00 00 00
  can0  694   [8]  03 7F 22 31 55 55 55 55
  can0  684   [8]  03 22 02 02 00 00 00 00
  can0  694   [8]  03 7F 22 31 55 55 55 55
  can0  684   [8]  03 22 02 03 00 00 00 00
  can0  694   [8]  03 7F 22 31 55 55 55 55
  can0  684   [8]  03 22 02 04 00 00 00 00
  can0  694   [8]  03 7F 22 31 55 55 55 55
  can0  684   [8]  03 22 02 05 00 00 00 00
  can0  694   [8]  03 7F 22 31 55 55 55 55
  can0  684   [8]  03 22 02 06 00 00 00 00
  can0  694   [8]  03 7F 22 31 55 55 55 55
  can0  684   [8]  03 22 02 07 00 00 00 00
  can0  694   [8]  03 7F 22 31 55 55 55 55
  can0  684   [8]  03 22 02 08 00 00 00 00
  can0  694   [8]  03 7F 22 31 55 55 55 55
  can0  684   [8]  03 22 02 09 00 00 00 00
  can0  694   [8]  03 7F 22 31 55 55 55 55
  can0  684   [8]  03 22 02 0A 00 00 00 00
  can0  694   [8]  03 7F 22 31 55 55 55 55
  can0  684   [8]  03 22 02 0B 00 00 00 00
  can0  694   [8]  03 7F 22 31 55 55 55 55
  can0  684   [8]  03 22 02 0C 00 00 00 00
  can0  694   [8]  03 7F 22 31 55 55 55 55
  can0  684   [8]  03 22 02 0D 00 00 00 00
  can0  694   [8]  03 7F 22 31 55 55 55 55
  can0  684   [8]  03 22 02 0E 00 00 00 00
  can0  694   [8]  03 7F 22 31 55 55 55 55
  can0  684   [8]  03 22 02 0F 00 00 00 00
  can0  694   [8]  03 7F 22 31 55 55 55 55
  can0  684   [8]  03 22 02 10 00 00 00 00
  can0  694   [8]  03 7F 22 31 55 55 55 55
  can0  684   [8]  03 22 02 11 00 00 00 00
  can0  694   [8]  03 7F 22 31 55 55 55 55
  can0  684   [8]  03 22 02 12 00 00 00 00
  can0  694   [8]  03 7F 22 31 55 55 55 55
  can0  684   [8]  03 22 02 13 00 00 00 00
  can0  694   [8]  03 7F 22 31 55 55 55 55
  can0  684   [8]  03 22 02 14 00 00 00 00
  can0  694   [8]  03 7F 22 31 55 55 55 55
  can0  684   [8]  03 22 02 15 00 00 00 00
  can0  694   [8]  03 7F 22 31 55 55 55 55
  can0  684   [8]  03 22 02 16 00 00 00 00
  can0  694   [8]  03 7F 22 31 55 55 55 55
  can0  684   [8]  03 22 02 17 00 00 00 00
  can0  694   [8]  03 7F 22 31 55 55 55 55
  can0  684   [8]  03 22 02 18 00 00 00 00
  can0  694   [8]  03 7F 22 31 55 55 55 55
  can0  684   [8]  03 22 02 19 00 00 00 00
  can0  694   [8]  03 7F 22 31 55 55 55 55
  can0  684   [8]  03 22 02 1A 00 00 00 00
  can0  694   [8]  03 7F 22 31 55 55 55 55
  can0  684   [8]  03 22 02 1B 00 00 00 00
  can0  694   [8]  03 7F 22 31 55 55 55 55
  can0  684   [8]  03 22 02 1C 00 00 00 00
  can0  694   [8]  03 7F 22 31 55 55 55 55
  can0  684   [8]  03 22 02 1D 00 00 00 00
  can0  694   [8]  03 7F 22 31 55 55 55 55
  can0  684   [8]  03 22 02 1E 00 00 00 00
  can0  694   [8]  03 7F 22 31 55 55 55 55
  can0  684   [8]  03 22 02 1F 00 00 00 00
  can0  694   [8]  03 7F 22 31 55 55 55 55
  can0  684   [8]  03 22 02 20 00 00 00 00
  can0  694   [8]  03 7F 22 31 55 55 55 55
  can0  684   [8]  03 22 02 21 00 00 00 00
  can0  694   [8]  03 7F 22 31 55 55 55 55
  can0  684   [8]  03 22 02 22 00 00 00 00
  can0  694   [8]  03 7F 22 31 55 55 55 55
  can0  684   [8]  03 22 02 23 00 00 00 00
  can0  694   [8]  03 7F 22 31 55 55 55 55
  can0  684   [8]  03 22 02 24 00 00 00 00
  can0  694   [8]  03 7F 22 31 55 55 55 55
  can0  684   [8]  03 22 02 25 00 00 00 00
  can0  694   [8]  03 7F 22 31 55 55 55 55
  can0  684   [8]  03 22 02 26 00 00 00 00
  can0  694   [8]  03 7F 22 31 55 55 55 55
  can0  684   [8]  03 22 02 27 00 00 00 00
  can0  694   [8]  03 7F 22 31 55 55 55 55
  can0  684   [8]  03 22 02 28 00 00 00 00
  can0  694   [8]  03 7F 22 31 55 55 55 55
  can0  684   [8]  03 22 02 29 00 00 00 00
  can0  694   [8]  03 7F 22 31 55 55 55 55
  can0  684   [8]  03 22 02 2A 00 00 00 00
  can0  694   [8]  03 7F 22 31 55 55 55 55
  can0  684   [8]  03 22 02 2B 00 00 00 00
  can0  694   [8]  03 7F 22 31 55 55 55 55
  can0  684   [8]  03 22 02 2C 00 00 00 00
  can0  694   [8]  03 7F 22 31 55 55 55 55
  can0  684   [8]  03 22 02 2D 00 00 00 00
  can0  694   [8]  03 7F 22 31 55 55 55 55
  can0  684   [8]  03 22 02 2E 00 00 00 00
  can0  694   [8]  03 7F 22 31 55 55 55 55
  can0  684   [8]  03 22 02 2F 00 00 00 00
  can0  694   [8]  03 7F 22 31 55 55 55 55
  can0  684   [8]  03 22 02 30 00 00 00 00
  can0  694   [8]  03 7F 22 31 55 55 55 55
  can0  684   [8]  03 22 02 31 00 00 00 00
  can0  694   [8]  03 7F 22 31 55 55 55 55
  can0  684   [8]  03 22 02 32 00 00 00 00
  can0  694   [8]  03 7F 22 31 55 55 55 55
  can0  684   [8]  03 22 02 33 00 00 00 00
  can0  694   [8]  03 7F 22 31 55 55 55 55
  can0  684   [8]  03 22 02 34 00 00 00 00
  can0  694   [8]  03 7F 22 31 55 55 55 55
  can0  684   [8]  03 22 02 35 00 00 00 00
  can0  694   [8]  03 7F 22 31 55 55 55 55
  can0  684   [8]  03 22 02 36 00 00 00 00
  can0  694   [8]  03 7F 22 31 55 55 55 55
  can0  684   [8]  03 22 02 37 00 00 00 00
  can0  694   [8]  03 7F 22 31 55 55 55 55
  can0  684   [8]  03 22 02 38 00 00 00 00
  can0  694   [8]  03 7F 22 31 55 55 55 55
  can0  684   [8]  03 22 02 39 00 00 00 00
  can0  694   [8]  03 7F 22 31 55 55 55 55
  can0  684   [8]  03 22 02 3A 00 00 00 00
  can0  694   [8]  03 7F 22 31 55 55 55 55
  can0  684   [8]  03 22 02 3B 00 00 00 00
  can0  694   [8]  03 7F 22 31 55 55 55 55
  can0  684   [8]  03 22 02 3C 00 00 00 00
  can0  694   [8]  03 7F 22 31 55 55 55 55
  can0  684   [8]  03 22 02 3D 00 00 00 00
  can0  694   [8]  03 7F 22 31 55 55 55 55
  can0  684   [8]  03 22 02 3E 00 00 00 00
  can0  694   [8]  03 7F 22 31 55 55 55 55
  can0  684   [8]  03 22 02 3F 00 00 00 00
  can0  694   [8]  03 7F 22 31 55 55 55 55
  can0  684   [8]  03 22 02 40 00 00 00 00
  can0  694   [8]  03 7F 22 31 55 55 55 55
  can0  684   [8]  03 22 02 41 00 00 00 00
  can0  694   [8]  03 7F 22 31 55 55 55 55
  can0  684   [8]  03 22 02 42 00 00 00 00
  can0  694   [8]  03 7F 22 31 55 55 55 55
  can0  684   [8]  03 22 02 43 00 00 00 00
  can0  694   [8]  03 7F 22 31 55 55 55 55
  can0  684   [8]  03 22 02 44 00 00 00 00
  can0  694   [8]  10 0B 62 02 44 03 00 0D
  can0  684   [8]  03 22 02 45 00 00 00 00
  can0  694   [8]  10 0B 62 02 45 03 00 F7
  can0  684   [8]  03 22 02 46 00 00 00 00
  can0  694   [8]  03 7F 22 31 55 55 55 55
  can0  684   [8]  03 22 02 47 00 00 00 00
  can0  694   [8]  03 7F 22 31 55 55 55 55
  can0  684   [8]  03 22 02 48 00 00 00 00
  can0  694   [8]  03 7F 22 31 55 55 55 55
  can0  684   [8]  03 22 02 49 00 00 00 00
  can0  694   [8]  03 7F 22 31 55 55 55 55
  can0  684   [8]  03 22 02 4A 00 00 00 00
  can0  694   [8]  03 7F 22 31 55 55 55 55
  can0  684   [8]  03 22 02 4B 00 00 00 00
  can0  694   [8]  03 7F 22 31 55 55 55 55
  can0  684   [8]  03 22 02 4C 00 00 00 00
  can0  694   [8]  03 7F 22 31 55 55 55 55
  can0  684   [8]  03 22 02 4D 00 00 00 00
  can0  694   [8]  03 7F 22 31 55 55 55 55
  can0  684   [8]  03 22 02 4E 00 00 00 00
  can0  694   [8]  03 7F 22 31 55 55 55 55
  can0  684   [8]  03 22 02 4F 00 00 00 00
  can0  694   [8]  03 7F 22 31 55 55 55 55
  can0  684   [8]  03 22 02 50 00 00 00 00
  can0  694   [8]  03 7F 22 31 55 55 55 55
  can0  684   [8]  03 22 02 51 00 00 00 00
  can0  694   [8]  03 7F 22 31 55 55 55 55
  can0  684   [8]  03 22 02 52 00 00 00 00
  can0  694   [8]  03 7F 22 31 55 55 55 55
  can0  684   [8]  03 22 02 53 00 00 00 00
  can0  694   [8]  03 7F 22 31 55 55 55 55
  can0  684   [8]  03 22 02 54 00 00 00 00
  can0  694   [8]  03 7F 22 31 55 55 55 55
  can0  684   [8]  03 22 02 55 00 00 00 00
  can0  694   [8]  03 7F 22 31 55 55 55 55
  can0  684   [8]  03 22 02 56 00 00 00 00
  can0  694   [8]  03 7F 22 31 55 55 55 55
  can0  684   [8]  03 22 02 57 00 00 00 00
  can0  694   [8]  03 7F 22 31 55 55 55 55
  can0  684   [8]  03 22 02 58 00 00 00 00
  can0  694   [8]  03 7F 22 31 55 55 55 55
  can0  684   [8]  03 22 02 59 00 00 00 00
  can0  694   [8]  03 7F 22 31 55 55 55 55
  can0  684   [8]  03 22 02 5A 00 00 00 00
  can0  694   [8]  03 7F 22 31 55 55 55 55
  can0  684   [8]  03 22 02 5B 00 00 00 00
  can0  694   [8]  03 7F 22 31 55 55 55 55
  can0  684   [8]  03 22 02 5C 00 00 00 00
  can0  694   [8]  03 7F 22 31 55 55 55 55
  can0  684   [8]  03 22 02 5D 00 00 00 00
  can0  694   [8]  03 7F 22 31 55 55 55 55
  can0  684   [8]  03 22 02 5E 00 00 00 00
  can0  694   [8]  03 7F 22 31 55 55 55 55
  can0  684   [8]  03 22 02 5F 00 00 00 00
  can0  694   [8]  03 7F 22 31 55 55 55 55
  can0  684   [8]  03 22 02 60 00 00 00 00
  can0  694   [8]  03 7F 22 31 55 55 55 55
  can0  684   [8]  03 22 02 61 00 00 00 00
  can0  694   [8]  03 7F 22 31 55 55 55 55
  can0  684   [8]  03 22 02 62 00 00 00 00
  can0  694   [8]  03 7F 22 31 55 55 55 55
  can0  684   [8]  03 22 02 63 00 00 00 00
  can0  694   [8]  03 7F 22 31 55 55 55 55
  can0  684   [8]  03 22 02 64 00 00 00 00
  can0  694   [8]  03 7F 22 31 55 55 55 55
  can0  684   [8]  03 22 02 65 00 00 00 00
  can0  694   [8]  03 7F 22 31 55 55 55 55
  can0  684   [8]  03 22 02 66 00 00 00 00
  can0  694   [8]  03 7F 22 31 55 55 55 55
  can0  684   [8]  03 22 02 67 00 00 00 00
  can0  694   [8]  03 7F 22 31 55 55 55 55
  can0  684   [8]  03 22 02 68 00 00 00 00
  can0  694   [8]  03 7F 22 31 55 55 55 55
  can0  684   [8]  03 22 02 69 00 00 00 00
  can0  694   [8]  03 7F 22 31 55 55 55 55
  can0  684   [8]  03 22 02 6A 00 00 00 00
  can0  694   [8]  03 7F 22 31 55 55 55 55
  can0  684   [8]  03 22 02 6B 00 00 00 00
  can0  694   [8]  03 7F 22 31 55 55 55 55
  can0  684   [8]  03 22 02 6C 00 00 00 00
  can0  694   [8]  03 7F 22 31 55 55 55 55
  can0  684   [8]  03 22 02 6D 00 00 00 00
  can0  694   [8]  03 7F 22 31 55 55 55 55
  can0  684   [8]  03 22 02 6E 00 00 00 00
  can0  694   [8]  03 7F 22 31 55 55 55 55
  can0  684   [8]  03 22 02 6F 00 00 00 00
  can0  694   [8]  03 7F 22 31 55 55 55 55
  can0  684   [8]  03 22 02 70 00 00 00 00
  can0  694   [8]  03 7F 22 31 55 55 55 55
  can0  684   [8]  03 22 02 71 00 00 00 00
  can0  694   [8]  03 7F 22 31 55 55 55 55
  can0  684   [8]  03 22 02 72 00 00 00 00
  can0  694   [8]  03 7F 22 31 55 55 55 55
  can0  684   [8]  03 22 02 73 00 00 00 00
  can0  694   [8]  03 7F 22 31 55 55 55 55
  can0  684   [8]  03 22 02 74 00 00 00 00
  can0  694   [8]  03 7F 22 31 55 55 55 55
  can0  684   [8]  03 22 02 75 00 00 00 00
  can0  694   [8]  03 7F 22 31 55 55 55 55
  can0  684   [8]  03 22 02 76 00 00 00 00
  can0  694   [8]  03 7F 22 31 55 55 55 55
  can0  684   [8]  03 22 02 77 00 00 00 00
  can0  694   [8]  03 7F 22 31 55 55 55 55
  can0  684   [8]  03 22 02 78 00 00 00 00
  can0  694   [8]  03 7F 22 31 55 55 55 55
  can0  684   [8]  03 22 02 79 00 00 00 00
  can0  694   [8]  03 7F 22 31 55 55 55 55
  can0  684   [8]  03 22 02 7A 00 00 00 00
  can0  694   [8]  03 7F 22 31 55 55 55 55
  can0  684   [8]  03 22 02 7B 00 00 00 00
  can0  694   [8]  03 7F 22 31 55 55 55 55
  can0  684   [8]  03 22 02 7C 00 00 00 00
  can0  694   [8]  03 7F 22 31 55 55 55 55
  can0  684   [8]  03 22 02 7D 00 00 00 00
  can0  694   [8]  03 7F 22 31 55 55 55 55
  can0  684   [8]  03 22 02 7E 00 00 00 00
  can0  694   [8]  03 7F 22 31 55 55 55 55
  can0  684   [8]  03 22 02 7F 00 00 00 00
  can0  694   [8]  03 7F 22 31 55 55 55 55
  can0  684   [8]  03 22 02 80 00 00 00 00
  can0  694   [8]  03 7F 22 31 55 55 55 55
  can0  684   [8]  03 22 02 81 00 00 00 00
  can0  694   [8]  03 7F 22 31 55 55 55 55
  can0  684   [8]  03 22 02 82 00 00 00 00
  can0  694   [8]  03 7F 22 31 55 55 55 55
  can0  684   [8]  03 22 02 83 00 00 00 00
  can0  694   [8]  03 7F 22 31 55 55 55 55
  can0  684   [8]  03 22 02 84 00 00 00 00
  can0  694   [8]  03 7F 22 31 55 55 55 55
  can0  684   [8]  03 22 02 85 00 00 00 00
  can0  694   [8]  03 7F 22 31 55 55 55 55
  can0  684   [8]  03 22 02 86 00 00 00 00
  can0  694   [8]  03 7F 22 31 55 55 55 55
  can0  684   [8]  03 22 02 87 00 00 00 00
  can0  694   [8]  03 7F 22 31 55 55 55 55
  can0  684   [8]  03 22 02 88 00 00 00 00
  can0  694   [8]  03 7F 22 31 55 55 55 55
  can0  684   [8]  03 22 02 89 00 00 00 00
  can0  694   [8]  03 7F 22 31 55 55 55 55
  can0  684   [8]  03 22 02 8A 00 00 00 00
  can0  694   [8]  03 7F 22 31 55 55 55 55
  can0  684   [8]  03 22 02 8B 00 00 00 00
  can0  694   [8]  03 7F 22 31 55 55 55 55
  can0  684   [8]  03 22 02 8C 00 00 00 00
  can0  694   [8]  03 7F 22 31 55 55 55 55
  can0  684   [8]  03 22 02 8D 00 00 00 00
  can0  694   [8]  03 7F 22 31 55 55 55 55
  can0  684   [8]  03 22 02 8E 00 00 00 00
  can0  694   [8]  03 7F 22 31 55 55 55 55
  can0  684   [8]  03 22 02 8F 00 00 00 00
  can0  694   [8]  03 7F 22 31 55 55 55 55
  can0  684   [8]  03 22 02 90 00 00 00 00
  can0  694   [8]  03 7F 22 31 55 55 55 55
  can0  684   [8]  03 22 02 91 00 00 00 00
  can0  694   [8]  03 7F 22 31 55 55 55 55
  can0  684   [8]  03 22 02 92 00 00 00 00
  can0  694   [8]  03 7F 22 31 55 55 55 55
  can0  684   [8]  03 22 02 93 00 00 00 00
  can0  694   [8]  03 7F 22 31 55 55 55 55
  can0  684   [8]  03 22 02 94 00 00 00 00
  can0  694   [8]  03 7F 22 31 55 55 55 55
  can0  684   [8]  03 22 02 95 00 00 00 00
  can0  694   [8]  03 7F 22 31 55 55 55 55
  can0  684   [8]  03 22 02 96 00 00 00 00
  can0  694   [8]  03 7F 22 31 55 55 55 55
  can0  684   [8]  03 22 02 97 00 00 00 00
  can0  694   [8]  03 7F 22 31 55 55 55 55
  can0  684   [8]  03 22 02 98 00 00 00 00
  can0  694   [8]  03 7F 22 31 55 55 55 55
  can0  684   [8]  03 22 02 99 00 00 00 00
  can0  694   [8]  03 7F 22 31 55 55 55 55
  can0  684   [8]  03 22 02 9A 00 00 00 00
  can0  694   [8]  03 7F 22 31 55 55 55 55
  can0  684   [8]  03 22 02 9B 00 00 00 00
  can0  694   [8]  03 7F 22 31 55 55 55 55
  can0  684   [8]  03 22 02 9C 00 00 00 00
  can0  694   [8]  03 7F 22 31 55 55 55 55
  can0  684   [8]  03 22 02 9D 00 00 00 00
  can0  694   [8]  03 7F 22 31 55 55 55 55
  can0  684   [8]  03 22 02 9E 00 00 00 00
  can0  694   [8]  03 7F 22 31 55 55 55 55
  can0  684   [8]  03 22 02 9F 00 00 00 00
  can0  694   [8]  03 7F 22 31 55 55 55 55
  can0  684   [8]  03 22 02 A0 00 00 00 00
  can0  694   [8]  03 7F 22 31 55 55 55 55
  can0  684   [8]  03 22 02 A1 00 00 00 00
  can0  694   [8]  03 7F 22 31 55 55 55 55
  can0  684   [8]  03 22 02 A2 00 00 00 00
  can0  694   [8]  03 7F 22 31 55 55 55 55
  can0  684   [8]  03 22 02 A3 00 00 00 00
  can0  694   [8]  03 7F 22 31 55 55 55 55
  can0  684   [8]  03 22 02 A4 00 00 00 00
  can0  694   [8]  03 7F 22 31 55 55 55 55
  can0  684   [8]  03 22 02 A5 00 00 00 00
  can0  694   [8]  03 7F 22 31 55 55 55 55
  can0  684   [8]  03 22 02 A6 00 00 00 00
  can0  694   [8]  03 7F 22 31 55 55 55 55
  can0  684   [8]  03 22 02 A7 00 00 00 00
  can0  694   [8]  03 7F 22 31 55 55 55 55
  can0  684   [8]  03 22 02 A8 00 00 00 00
  can0  694   [8]  03 7F 22 31 55 55 55 55
  can0  684   [8]  03 22 02 A9 00 00 00 00
  can0  694   [8]  03 7F 22 31 55 55 55 55
  can0  684   [8]  03 22 02 AA 00 00 00 00
  can0  694   [8]  03 7F 22 31 55 55 55 55
  can0  684   [8]  03 22 02 AB 00 00 00 00
  can0  694   [8]  03 7F 22 31 55 55 55 55
  can0  684   [8]  03 22 02 AC 00 00 00 00
  can0  694   [8]  03 7F 22 31 55 55 55 55
  can0  684   [8]  03 22 02 AD 00 00 00 00
  can0  694   [8]  03 7F 22 31 55 55 55 55
  can0  684   [8]  03 22 02 AE 00 00 00 00
  can0  694   [8]  03 7F 22 31 55 55 55 55
  can0  684   [8]  03 22 02 AF 00 00 00 00
  can0  694   [8]  03 7F 22 31 55 55 55 55
  can0  684   [8]  03 22 02 B0 00 00 00 00
  can0  694   [8]  03 7F 22 31 55 55 55 55
  can0  684   [8]  03 22 02 B1 00 00 00 00
  can0  694   [8]  03 7F 22 31 55 55 55 55
  can0  684   [8]  03 22 02 B2 00 00 00 00
  can0  694   [8]  03 7F 22 31 55 55 55 55
  can0  684   [8]  03 22 02 B3 00 00 00 00
  can0  694   [8]  03 7F 22 31 55 55 55 55
  can0  684   [8]  03 22 02 B4 00 00 00 00
  can0  694   [8]  03 7F 22 31 55 55 55 55
  can0  684   [8]  03 22 02 B5 00 00 00 00
  can0  694   [8]  03 7F 22 31 55 55 55 55
  can0  684   [8]  03 22 02 B6 00 00 00 00
  can0  694   [8]  03 7F 22 31 55 55 55 55
  can0  684   [8]  03 22 02 B7 00 00 00 00
  can0  694   [8]  03 7F 22 31 55 55 55 55
  can0  684   [8]  03 22 02 B8 00 00 00 00
  can0  694   [8]  03 7F 22 31 55 55 55 55
  can0  684   [8]  03 22 02 B9 00 00 00 00
  can0  694   [8]  03 7F 22 31 55 55 55 55
  can0  684   [8]  03 22 02 BA 00 00 00 00
  can0  694   [8]  03 7F 22 31 55 55 55 55
  can0  684   [8]  03 22 02 BB 00 00 00 00
  can0  694   [8]  03 7F 22 31 55 55 55 55
  can0  684   [8]  03 22 02 BC 00 00 00 00
  can0  694   [8]  03 7F 22 31 55 55 55 55
  can0  684   [8]  03 22 02 BD 00 00 00 00
  can0  694   [8]  03 7F 22 31 55 55 55 55
  can0  684   [8]  03 22 02 BE 00 00 00 00
  can0  694   [8]  03 7F 22 31 55 55 55 55
  can0  684   [8]  03 22 02 BF 00 00 00 00
  can0  694   [8]  03 7F 22 31 55 55 55 55
  can0  684   [8]  03 22 02 C0 00 00 00 00
  can0  694   [8]  03 7F 22 31 55 55 55 55
  can0  684   [8]  03 22 02 C1 00 00 00 00
  can0  694   [8]  03 7F 22 31 55 55 55 55
  can0  684   [8]  03 22 02 C2 00 00 00 00
  can0  694   [8]  03 7F 22 31 55 55 55 55
  can0  684   [8]  03 22 02 C3 00 00 00 00
  can0  694   [8]  03 7F 22 31 55 55 55 55
  can0  684   [8]  03 22 02 C4 00 00 00 00
  can0  694   [8]  03 7F 22 31 55 55 55 55
  can0  684   [8]  03 22 02 C5 00 00 00 00
  can0  694   [8]  03 7F 22 31 55 55 55 55
  can0  684   [8]  03 22 02 C6 00 00 00 00
  can0  694   [8]  03 7F 22 31 55 55 55 55
  can0  684   [8]  03 22 02 C7 00 00 00 00
  can0  694   [8]  03 7F 22 31 55 55 55 55
  can0  684   [8]  03 22 02 C8 00 00 00 00
  can0  694   [8]  03 7F 22 31 55 55 55 55
  can0  684   [8]  03 22 02 C9 00 00 00 00
  can0  694   [8]  03 7F 22 31 55 55 55 55
  can0  684   [8]  03 22 02 CA 00 00 00 00
  can0  694   [8]  03 7F 22 31 55 55 55 55
  can0  684   [8]  03 22 02 CB 00 00 00 00
  can0  694   [8]  03 7F 22 31 55 55 55 55
  can0  684   [8]  03 22 02 CC 00 00 00 00
  can0  694   [8]  03 7F 22 31 55 55 55 55
  can0  684   [8]  03 22 02 CD 00 00 00 00
  can0  694   [8]  03 7F 22 31 55 55 55 55
  can0  684   [8]  03 22 02 CE 00 00 00 00
  can0  694   [8]  03 7F 22 31 55 55 55 55
  can0  684   [8]  03 22 02 CF 00 00 00 00
  can0  694   [8]  03 7F 22 31 55 55 55 55
  can0  684   [8]  03 22 02 D0 00 00 00 00
  can0  694   [8]  03 7F 22 31 55 55 55 55
  can0  684   [8]  03 22 02 D1 00 00 00 00
  can0  694   [8]  03 7F 22 31 55 55 55 55
  can0  684   [8]  03 22 02 D2 00 00 00 00
  can0  694   [8]  03 7F 22 31 55 55 55 55
  can0  684   [8]  03 22 02 D3 00 00 00 00
  can0  694   [8]  03 7F 22 31 55 55 55 55
  can0  684   [8]  03 22 02 D4 00 00 00 00
  can0  694   [8]  03 7F 22 31 55 55 55 55
  can0  684   [8]  03 22 02 D5 00 00 00 00
  can0  694   [8]  03 7F 22 31 55 55 55 55
  can0  684   [8]  03 22 02 D6 00 00 00 00
  can0  694   [8]  03 7F 22 31 55 55 55 55
  can0  684   [8]  03 22 02 D7 00 00 00 00
  can0  694   [8]  03 7F 22 31 55 55 55 55
  can0  684   [8]  03 22 02 D8 00 00 00 00
  can0  694   [8]  03 7F 22 31 55 55 55 55
  can0  684   [8]  03 22 02 D9 00 00 00 00
  can0  694   [8]  03 7F 22 31 55 55 55 55
  can0  684   [8]  03 22 02 DA 00 00 00 00
  can0  694   [8]  03 7F 22 31 55 55 55 55
  can0  684   [8]  03 22 02 DB 00 00 00 00
  can0  694   [8]  03 7F 22 31 55 55 55 55
  can0  684   [8]  03 22 02 DC 00 00 00 00
  can0  694   [8]  03 7F 22 31 55 55 55 55
  can0  684   [8]  03 22 02 DD 00 00 00 00
  can0  694   [8]  03 7F 22 31 55 55 55 55
  can0  684   [8]  03 22 02 DE 00 00 00 00
  can0  694   [8]  03 7F 22 31 55 55 55 55
  can0  684   [8]  03 22 02 DF 00 00 00 00
  can0  694   [8]  03 7F 22 31 55 55 55 55
  can0  684   [8]  03 22 02 E0 00 00 00 00
  can0  694   [8]  03 7F 22 31 55 55 55 55
  can0  684   [8]  03 22 02 E1 00 00 00 00
  can0  694   [8]  03 7F 22 31 55 55 55 55
  can0  684   [8]  03 22 02 E2 00 00 00 00
  can0  694   [8]  03 7F 22 31 55 55 55 55
  can0  684   [8]  03 22 02 E3 00 00 00 00
  can0  694   [8]  03 7F 22 31 55 55 55 55
  can0  684   [8]  03 22 02 E4 00 00 00 00
  can0  694   [8]  03 7F 22 31 55 55 55 55
  can0  684   [8]  03 22 02 E5 00 00 00 00
  can0  694   [8]  03 7F 22 31 55 55 55 55
  can0  684   [8]  03 22 02 E6 00 00 00 00
  can0  694   [8]  03 7F 22 31 55 55 55 55
  can0  684   [8]  03 22 02 E7 00 00 00 00
  can0  694   [8]  03 7F 22 31 55 55 55 55
  can0  684   [8]  03 22 02 E8 00 00 00 00
  can0  694   [8]  03 7F 22 31 55 55 55 55
  can0  684   [8]  03 22 02 E9 00 00 00 00
  can0  694   [8]  03 7F 22 31 55 55 55 55
  can0  684   [8]  03 22 02 EA 00 00 00 00
  can0  694   [8]  03 7F 22 31 55 55 55 55
  can0  684   [8]  03 22 02 EB 00 00 00 00
  can0  694   [8]  03 7F 22 31 55 55 55 55
  can0  684   [8]  03 22 02 EC 00 00 00 00
  can0  694   [8]  03 7F 22 31 55 55 55 55
  can0  684   [8]  03 22 02 ED 00 00 00 00
  can0  694   [8]  03 7F 22 31 55 55 55 55
  can0  684   [8]  03 22 02 EE 00 00 00 00
  can0  694   [8]  03 7F 22 31 55 55 55 55
  can0  684   [8]  03 22 02 EF 00 00 00 00
  can0  694   [8]  03 7F 22 31 55 55 55 55
  can0  684   [8]  03 22 02 F0 00 00 00 00
  can0  694   [8]  03 7F 22 31 55 55 55 55
  can0  684   [8]  03 22 02 F1 00 00 00 00
  can0  694   [8]  03 7F 22 31 55 55 55 55
  can0  684   [8]  03 22 02 F2 00 00 00 00
  can0  694   [8]  03 7F 22 31 55 55 55 55
  can0  684   [8]  03 22 02 F3 00 00 00 00
  can0  694   [8]  03 7F 22 31 55 55 55 55
  can0  684   [8]  03 22 02 F4 00 00 00 00
  can0  694   [8]  03 7F 22 31 55 55 55 55
  can0  684   [8]  03 22 02 F5 00 00 00 00
  can0  694   [8]  03 7F 22 31 55 55 55 55
  can0  684   [8]  03 22 02 F6 00 00 00 00
  can0  694   [8]  03 7F 22 31 55 55 55 55
  can0  684   [8]  03 22 02 F7 00 00 00 00
  can0  694   [8]  03 7F 22 31 55 55 55 55
  can0  684   [8]  03 22 02 F8 00 00 00 00
  can0  694   [8]  03 7F 22 31 55 55 55 55
  can0  684   [8]  03 22 02 F9 00 00 00 00
  can0  694   [8]  03 7F 22 31 55 55 55 55
  can0  684   [8]  03 22 02 FA 00 00 00 00
  can0  694   [8]  03 7F 22 31 55 55 55 55
  can0  684   [8]  03 22 02 FB 00 00 00 00
  can0  694   [8]  03 7F 22 31 55 55 55 55
  can0  684   [8]  03 22 02 FC 00 00 00 00
  can0  694   [8]  03 7F 22 31 55 55 55 55
  can0  684   [8]  03 22 02 FD 00 00 00 00
  can0  694   [8]  03 7F 22 31 55 55 55 55
  can0  684   [8]  03 22 02 FE 00 00 00 00
  can0  694   [8]  03 7F 22 31 55 55 55 55
  can0  684   [8]  03 22 02 FF 00 00 00 00
  can0  694   [8]  03 7F 22 31 55 55 55 55
  can0  684   [8]  03 22 03 00 00 00 00 00
  can0  694   [8]  03 7F 22 31 55 55 55 55
  can0  684   [8]  03 22 03 01 00 00 00 00
  can0  694   [8]  03 7F 22 31 55 55 55 55
  can0  684   [8]  03 22 03 02 00 00 00 00
  can0  694   [8]  03 7F 22 31 55 55 55 55
  can0  684   [8]  03 22 03 03 00 00 00 00
  can0  694   [8]  03 7F 22 31 55 55 55 55
  can0  684   [8]  03 22 03 04 00 00 00 00
  can0  694   [8]  03 7F 22 31 55 55 55 55
  can0  684   [8]  03 22 03 05 00 00 00 00
  can0  694   [8]  03 7F 22 31 55 55 55 55
  can0  684   [8]  03 22 03 06 00 00 00 00
  can0  694   [8]  03 7F 22 31 55 55 55 55
  can0  684   [8]  03 22 03 07 00 00 00 00
  can0  694   [8]  03 7F 22 31 55 55 55 55
  can0  684   [8]  03 22 03 08 00 00 00 00
  can0  694   [8]  03 7F 22 31 55 55 55 55
  can0  684   [8]  03 22 03 09 00 00 00 00
  can0  694   [8]  03 7F 22 31 55 55 55 55
  can0  684   [8]  03 22 03 0A 00 00 00 00
  can0  694   [8]  03 7F 22 31 55 55 55 55
  can0  684   [8]  03 22 03 0B 00 00 00 00
  can0  694   [8]  03 7F 22 31 55 55 55 55
  can0  684   [8]  03 22 03 0C 00 00 00 00
  can0  694   [8]  03 7F 22 31 55 55 55 55
  can0  684   [8]  03 22 03 0D 00 00 00 00
  can0  694   [8]  03 7F 22 31 55 55 55 55
  can0  684   [8]  03 22 03 0E 00 00 00 00
  can0  694   [8]  03 7F 22 31 55 55 55 55
  can0  684   [8]  03 22 03 0F 00 00 00 00
  can0  694   [8]  03 7F 22 31 55 55 55 55
  can0  684   [8]  03 22 03 10 00 00 00 00
  can0  694   [8]  03 7F 22 31 55 55 55 55
  can0  684   [8]  03 22 03 11 00 00 00 00
  can0  694   [8]  03 7F 22 31 55 55 55 55
  can0  684   [8]  03 22 03 12 00 00 00 00
  can0  694   [8]  03 7F 22 31 55 55 55 55
  can0  684   [8]  03 22 03 13 00 00 00 00
  can0  694   [8]  03 7F 22 31 55 55 55 55
  can0  684   [8]  03 22 03 14 00 00 00 00
  can0  694   [8]  03 7F 22 31 55 55 55 55
  can0  684   [8]  03 22 03 15 00 00 00 00
  can0  694   [8]  03 7F 22 31 55 55 55 55
  can0  684   [8]  03 22 03 16 00 00 00 00
  can0  694   [8]  03 7F 22 31 55 55 55 55
  can0  684   [8]  03 22 03 17 00 00 00 00
  can0  694   [8]  03 7F 22 31 55 55 55 55
  can0  684   [8]  03 22 03 18 00 00 00 00
  can0  694   [8]  03 7F 22 31 55 55 55 55
  can0  684   [8]  03 22 03 19 00 00 00 00
  can0  694   [8]  03 7F 22 31 55 55 55 55
  can0  684   [8]  03 22 03 1A 00 00 00 00
  can0  694   [8]  03 7F 22 31 55 55 55 55
  can0  684   [8]  03 22 03 1B 00 00 00 00
  can0  694   [8]  03 7F 22 31 55 55 55 55
  can0  684   [8]  03 22 03 1C 00 00 00 00
  can0  694   [8]  03 7F 22 31 55 55 55 55
  can0  684   [8]  03 22 03 1D 00 00 00 00
  can0  694   [8]  03 7F 22 31 55 55 55 55
  can0  684   [8]  03 22 03 1E 00 00 00 00
  can0  694   [8]  03 7F 22 31 55 55 55 55
  can0  684   [8]  03 22 03 1F 00 00 00 00
  can0  694   [8]  03 7F 22 31 55 55 55 55
  can0  684   [8]  03 22 03 20 00 00 00 00
  can0  694   [8]  03 7F 22 31 55 55 55 55
  can0  684   [8]  03 22 03 21 00 00 00 00
  can0  694   [8]  03 7F 22 31 55 55 55 55
  can0  684   [8]  03 22 03 22 00 00 00 00
  can0  694   [8]  03 7F 22 31 55 55 55 55
  can0  684   [8]  03 22 03 23 00 00 00 00
  can0  694   [8]  03 7F 22 31 55 55 55 55
  can0  684   [8]  03 22 03 24 00 00 00 00
  can0  694   [8]  03 7F 22 31 55 55 55 55
  can0  684   [8]  03 22 03 25 00 00 00 00
  can0  694   [8]  03 7F 22 31 55 55 55 55
  can0  684   [8]  03 22 03 26 00 00 00 00
  can0  694   [8]  03 7F 22 31 55 55 55 55
  can0  684   [8]  03 22 03 27 00 00 00 00
  can0  694   [8]  03 7F 22 31 55 55 55 55
  can0  684   [8]  03 22 03 28 00 00 00 00
  can0  694   [8]  03 7F 22 31 55 55 55 55
  can0  684   [8]  03 22 03 29 00 00 00 00
  can0  694   [8]  03 7F 22 31 55 55 55 55
  can0  684   [8]  03 22 03 2A 00 00 00 00
  can0  694   [8]  03 7F 22 31 55 55 55 55
  can0  684   [8]  03 22 03 2B 00 00 00 00
  can0  694   [8]  03 7F 22 31 55 55 55 55
  can0  684   [8]  03 22 03 2C 00 00 00 00
  can0  694   [8]  03 7F 22 31 55 55 55 55
  can0  684   [8]  03 22 03 2D 00 00 00 00
  can0  694   [8]  03 7F 22 31 55 55 55 55
  can0  684   [8]  03 22 03 2E 00 00 00 00
  can0  694   [8]  03 7F 22 31 55 55 55 55
  can0  684   [8]  03 22 03 2F 00 00 00 00
  can0  694   [8]  03 7F 22 31 55 55 55 55
  can0  684   [8]  03 22 03 30 00 00 00 00
  can0  694   [8]  03 7F 22 31 55 55 55 55
  can0  684   [8]  03 22 03 31 00 00 00 00
  can0  694   [8]  03 7F 22 31 55 55 55 55
  can0  684   [8]  03 22 03 32 00 00 00 00
  can0  694   [8]  03 7F 22 31 55 55 55 55
  can0  684   [8]  03 22 03 33 00 00 00 00
  can0  694   [8]  03 7F 22 31 55 55 55 55
  can0  684   [8]  03 22 03 34 00 00 00 00
  can0  694   [8]  03 7F 22 31 55 55 55 55
  can0  684   [8]  03 22 03 35 00 00 00 00
  can0  694   [8]  03 7F 22 31 55 55 55 55
  can0  684   [8]  03 22 03 36 00 00 00 00
  can0  694   [8]  03 7F 22 31 55 55 55 55
  can0  684   [8]  03 22 03 37 00 00 00 00
  can0  694   [8]  03 7F 22 31 55 55 55 55
  can0  684   [8]  03 22 03 38 00 00 00 00
  can0  694   [8]  03 7F 22 31 55 55 55 55
  can0  684   [8]  03 22 03 39 00 00 00 00
  can0  694   [8]  03 7F 22 31 55 55 55 55
  can0  684   [8]  03 22 03 3A 00 00 00 00
  can0  694   [8]  03 7F 22 31 55 55 55 55
  can0  684   [8]  03 22 03 3B 00 00 00 00
  can0  694   [8]  03 7F 22 31 55 55 55 55
  can0  684   [8]  03 22 03 3C 00 00 00 00
  can0  694   [8]  03 7F 22 31 55 55 55 55
  can0  684   [8]  03 22 03 3D 00 00 00 00
  can0  694   [8]  03 7F 22 31 55 55 55 55
  can0  684   [8]  03 22 03 3E 00 00 00 00
  can0  694   [8]  03 7F 22 31 55 55 55 55
  can0  684   [8]  03 22 03 3F 00 00 00 00
  can0  694   [8]  03 7F 22 31 55 55 55 55
  can0  684   [8]  03 22 03 40 00 00 00 00
  can0  694   [8]  03 7F 22 31 55 55 55 55
  can0  684   [8]  03 22 03 41 00 00 00 00
  can0  694   [8]  03 7F 22 31 55 55 55 55
  can0  684   [8]  03 22 03 42 00 00 00 00
  can0  694   [8]  03 7F 22 31 55 55 55 55
  can0  684   [8]  03 22 03 43 00 00 00 00
  can0  694   [8]  03 7F 22 31 55 55 55 55
  can0  684   [8]  03 22 03 44 00 00 00 00
  can0  694   [8]  03 7F 22 31 55 55 55 55
  can0  684   [8]  03 22 03 45 00 00 00 00
  can0  694   [8]  03 7F 22 31 55 55 55 55
  can0  684   [8]  03 22 03 46 00 00 00 00
  can0  694   [8]  03 7F 22 31 55 55 55 55
  can0  684   [8]  03 22 03 47 00 00 00 00
  can0  694   [8]  03 7F 22 31 55 55 55 55
  can0  684   [8]  03 22 03 48 00 00 00 00
  can0  694   [8]  03 7F 22 31 55 55 55 55
  can0  684   [8]  03 22 03 49 00 00 00 00
  can0  694   [8]  03 7F 22 31 55 55 55 55
  can0  684   [8]  03 22 03 4A 00 00 00 00
  can0  694   [8]  03 7F 22 31 55 55 55 55
  can0  684   [8]  03 22 03 4B 00 00 00 00
  can0  694   [8]  03 7F 22 31 55 55 55 55
  can0  684   [8]  03 22 03 4C 00 00 00 00
  can0  694   [8]  03 7F 22 31 55 55 55 55
  can0  684   [8]  03 22 03 4D 00 00 00 00
  can0  694   [8]  03 7F 22 31 55 55 55 55
  can0  684   [8]  03 22 03 4E 00 00 00 00
  can0  694   [8]  03 7F 22 31 55 55 55 55
  can0  684   [8]  03 22 03 4F 00 00 00 00
  can0  694   [8]  03 7F 22 31 55 55 55 55
  can0  684   [8]  03 22 03 50 00 00 00 00
  can0  694   [8]  03 7F 22 31 55 55 55 55
  can0  684   [8]  03 22 03 51 00 00 00 00
  can0  694   [8]  03 7F 22 31 55 55 55 55
  can0  684   [8]  03 22 03 52 00 00 00 00
  can0  694   [8]  03 7F 22 31 55 55 55 55
  can0  684   [8]  03 22 03 53 00 00 00 00
  can0  694   [8]  03 7F 22 31 55 55 55 55
  can0  684   [8]  03 22 03 54 00 00 00 00
  can0  694   [8]  03 7F 22 31 55 55 55 55
  can0  684   [8]  03 22 03 55 00 00 00 00
  can0  694   [8]  03 7F 22 31 55 55 55 55
  can0  684   [8]  03 22 03 56 00 00 00 00
  can0  694   [8]  03 7F 22 31 55 55 55 55
  can0  684   [8]  03 22 03 57 00 00 00 00
  can0  694   [8]  03 7F 22 31 55 55 55 55
  can0  684   [8]  03 22 03 58 00 00 00 00
  can0  694   [8]  03 7F 22 31 55 55 55 55
  can0  684   [8]  03 22 03 59 00 00 00 00
  can0  694   [8]  03 7F 22 31 55 55 55 55
  can0  684   [8]  03 22 03 5A 00 00 00 00
  can0  694   [8]  03 7F 22 31 55 55 55 55
  can0  684   [8]  03 22 03 5B 00 00 00 00
  can0  694   [8]  03 7F 22 31 55 55 55 55
  can0  684   [8]  03 22 03 5C 00 00 00 00
  can0  694   [8]  03 7F 22 31 55 55 55 55
  can0  684   [8]  03 22 03 5D 00 00 00 00
  can0  694   [8]  03 7F 22 31 55 55 55 55
  can0  684   [8]  03 22 03 5E 00 00 00 00
  can0  694   [8]  03 7F 22 31 55 55 55 55
  can0  684   [8]  03 22 03 5F 00 00 00 00
  can0  694   [8]  03 7F 22 31 55 55 55 55
  can0  684   [8]  03 22 03 60 00 00 00 00
  can0  694   [8]  03 7F 22 31 55 55 55 55
  can0  684   [8]  03 22 03 61 00 00 00 00
  can0  694   [8]  03 7F 22 31 55 55 55 55
  can0  684   [8]  03 22 03 62 00 00 00 00
  can0  694   [8]  03 7F 22 31 55 55 55 55
  can0  684   [8]  03 22 03 63 00 00 00 00
  can0  694   [8]  03 7F 22 31 55 55 55 55
  can0  684   [8]  03 22 03 64 00 00 00 00
  can0  694   [8]  03 7F 22 31 55 55 55 55
  can0  684   [8]  03 22 03 65 00 00 00 00
  can0  694   [8]  03 7F 22 31 55 55 55 55
  can0  684   [8]  03 22 03 66 00 00 00 00
  can0  694   [8]  03 7F 22 31 55 55 55 55
  can0  684   [8]  03 22 03 67 00 00 00 00
  can0  694   [8]  03 7F 22 31 55 55 55 55
  can0  684   [8]  03 22 03 68 00 00 00 00
  can0  694   [8]  03 7F 22 31 55 55 55 55
  can0  684   [8]  03 22 03 69 00 00 00 00
  can0  694   [8]  03 7F 22 31 55 55 55 55
  can0  684   [8]  03 22 03 6A 00 00 00 00
  can0  694   [8]  03 7F 22 31 55 55 55 55
  can0  684   [8]  03 22 03 6B 00 00 00 00
  can0  694   [8]  03 7F 22 31 55 55 55 55
  can0  684   [8]  03 22 03 6C 00 00 00 00
  can0  694   [8]  03 7F 22 31 55 55 55 55
  can0  684   [8]  03 22 03 6D 00 00 00 00
  can0  694   [8]  03 7F 22 31 55 55 55 55
  can0  684   [8]  03 22 03 6E 00 00 00 00
  can0  694   [8]  03 7F 22 31 55 55 55 55
  can0  684   [8]  03 22 03 6F 00 00 00 00
  can0  694   [8]  03 7F 22 31 55 55 55 55
  can0  684   [8]  03 22 03 70 00 00 00 00
  can0  694   [8]  03 7F 22 31 55 55 55 55
  can0  684   [8]  03 22 03 71 00 00 00 00
  can0  694   [8]  03 7F 22 31 55 55 55 55
  can0  684   [8]  03 22 03 72 00 00 00 00
  can0  694   [8]  03 7F 22 31 55 55 55 55
  can0  684   [8]  03 22 03 73 00 00 00 00
  can0  694   [8]  03 7F 22 31 55 55 55 55
  can0  684   [8]  03 22 03 74 00 00 00 00
  can0  694   [8]  03 7F 22 31 55 55 55 55
  can0  684   [8]  03 22 03 75 00 00 00 00
  can0  694   [8]  03 7F 22 31 55 55 55 55
  can0  684   [8]  03 22 03 76 00 00 00 00
  can0  694   [8]  03 7F 22 31 55 55 55 55
  can0  684   [8]  03 22 03 77 00 00 00 00
  can0  694   [8]  03 7F 22 31 55 55 55 55
  can0  684   [8]  03 22 03 78 00 00 00 00
  can0  694   [8]  03 7F 22 31 55 55 55 55
  can0  684   [8]  03 22 03 79 00 00 00 00
  can0  694   [8]  03 7F 22 31 55 55 55 55
  can0  684   [8]  03 22 03 7A 00 00 00 00
  can0  694   [8]  03 7F 22 31 55 55 55 55
  can0  684   [8]  03 22 03 7B 00 00 00 00
  can0  694   [8]  03 7F 22 31 55 55 55 55
  can0  684   [8]  03 22 03 7C 00 00 00 00
  can0  694   [8]  03 7F 22 31 55 55 55 55
  can0  684   [8]  03 22 03 7D 00 00 00 00
  can0  694   [8]  03 7F 22 31 55 55 55 55
  can0  684   [8]  03 22 03 7E 00 00 00 00
  can0  694   [8]  03 7F 22 31 55 55 55 55
  can0  684   [8]  03 22 03 7F 00 00 00 00
  can0  694   [8]  03 7F 22 31 55 55 55 55
  can0  684   [8]  03 22 03 80 00 00 00 00
  can0  694   [8]  03 7F 22 31 55 55 55 55
  can0  684   [8]  03 22 03 81 00 00 00 00
  can0  694   [8]  03 7F 22 31 55 55 55 55
  can0  684   [8]  03 22 03 82 00 00 00 00
  can0  694   [8]  03 7F 22 31 55 55 55 55
  can0  684   [8]  03 22 03 83 00 00 00 00
  can0  694   [8]  03 7F 22 31 55 55 55 55
  can0  684   [8]  03 22 03 84 00 00 00 00
  can0  694   [8]  03 7F 22 31 55 55 55 55
  can0  684   [8]  03 22 03 85 00 00 00 00
  can0  694   [8]  03 7F 22 31 55 55 55 55
  can0  684   [8]  03 22 03 86 00 00 00 00
  can0  694   [8]  03 7F 22 31 55 55 55 55
  can0  684   [8]  03 22 03 87 00 00 00 00
  can0  694   [8]  03 7F 22 31 55 55 55 55
  can0  684   [8]  03 22 03 88 00 00 00 00
  can0  694   [8]  03 7F 22 31 55 55 55 55
  can0  684   [8]  03 22 03 89 00 00 00 00
  can0  694   [8]  03 7F 22 31 55 55 55 55
  can0  684   [8]  03 22 03 8A 00 00 00 00
  can0  694   [8]  03 7F 22 31 55 55 55 55
  can0  684   [8]  03 22 03 8B 00 00 00 00
  can0  694   [8]  03 7F 22 31 55 55 55 55
  can0  684   [8]  03 22 03 8C 00 00 00 00
  can0  694   [8]  03 7F 22 31 55 55 55 55
  can0  684   [8]  03 22 03 8D 00 00 00 00
  can0  694   [8]  03 7F 22 31 55 55 55 55
  can0  684   [8]  03 22 03 8E 00 00 00 00
  can0  694   [8]  03 7F 22 31 55 55 55 55
  can0  684   [8]  03 22 03 8F 00 00 00 00
  can0  694   [8]  03 7F 22 31 55 55 55 55
  can0  684   [8]  03 22 03 90 00 00 00 00
  can0  694   [8]  03 7F 22 31 55 55 55 55
  can0  684   [8]  03 22 03 91 00 00 00 00
  can0  694   [8]  03 7F 22 31 55 55 55 55
  can0  684   [8]  03 22 03 92 00 00 00 00
  can0  694   [8]  03 7F 22 31 55 55 55 55
  can0  684   [8]  03 22 03 93 00 00 00 00
  can0  694   [8]  03 7F 22 31 55 55 55 55
  can0  684   [8]  03 22 03 94 00 00 00 00
  can0  694   [8]  03 7F 22 31 55 55 55 55
  can0  684   [8]  03 22 03 95 00 00 00 00
  can0  694   [8]  03 7F 22 31 55 55 55 55
  can0  684   [8]  03 22 03 96 00 00 00 00
  can0  694   [8]  03 7F 22 31 55 55 55 55
  can0  684   [8]  03 22 03 97 00 00 00 00
  can0  694   [8]  03 7F 22 31 55 55 55 55
  can0  684   [8]  03 22 03 98 00 00 00 00
  can0  694   [8]  03 7F 22 31 55 55 55 55
  can0  684   [8]  03 22 03 99 00 00 00 00
  can0  694   [8]  03 7F 22 31 55 55 55 55
  can0  684   [8]  03 22 03 9A 00 00 00 00
  can0  694   [8]  03 7F 22 31 55 55 55 55
  can0  684   [8]  03 22 03 9B 00 00 00 00
  can0  694   [8]  03 7F 22 31 55 55 55 55
  can0  684   [8]  03 22 03 9C 00 00 00 00
  can0  694   [8]  03 7F 22 31 55 55 55 55
  can0  684   [8]  03 22 03 9D 00 00 00 00
  can0  694   [8]  03 7F 22 31 55 55 55 55
  can0  684   [8]  03 22 03 9E 00 00 00 00
  can0  694   [8]  03 7F 22 31 55 55 55 55
  can0  684   [8]  03 22 03 9F 00 00 00 00
  can0  694   [8]  03 7F 22 31 55 55 55 55
  can0  684   [8]  03 22 03 A0 00 00 00 00
  can0  694   [8]  10 13 62 03 A0 37 36 33
  can0  684   [8]  03 22 03 A1 00 00 00 00
  can0  694   [8]  03 7F 22 31 55 55 55 55
  can0  684   [8]  03 22 03 A2 00 00 00 00
  can0  694   [8]  03 7F 22 31 55 55 55 55
  can0  684   [8]  03 22 03 A3 00 00 00 00
  can0  694   [8]  03 7F 22 31 55 55 55 55
  can0  684   [8]  03 22 03 A4 00 00 00 00
  can0  694   [8]  03 7F 22 31 55 55 55 55
  can0  684   [8]  03 22 03 A5 00 00 00 00
  can0  694   [8]  03 7F 22 31 55 55 55 55
  can0  684   [8]  03 22 03 A6 00 00 00 00
  can0  694   [8]  03 7F 22 31 55 55 55 55
  can0  684   [8]  03 22 03 A7 00 00 00 00
  can0  694   [8]  03 7F 22 31 55 55 55 55
  can0  684   [8]  03 22 03 A8 00 00 00 00
  can0  694   [8]  03 7F 22 31 55 55 55 55
  can0  684   [8]  03 22 03 A9 00 00 00 00
  can0  694   [8]  03 7F 22 31 55 55 55 55
  can0  684   [8]  03 22 03 AA 00 00 00 00
  can0  694   [8]  03 7F 22 31 55 55 55 55
  can0  684   [8]  03 22 03 AB 00 00 00 00
  can0  694   [8]  03 7F 22 31 55 55 55 55
  can0  684   [8]  03 22 03 AC 00 00 00 00
  can0  694   [8]  03 7F 22 31 55 55 55 55
  can0  684   [8]  03 22 03 AD 00 00 00 00
  can0  694   [8]  03 7F 22 31 55 55 55 55
  can0  684   [8]  03 22 03 AE 00 00 00 00
  can0  694   [8]  03 7F 22 31 55 55 55 55
  can0  684   [8]  03 22 03 AF 00 00 00 00
  can0  694   [8]  03 7F 22 31 55 55 55 55
  can0  684   [8]  03 22 03 B0 00 00 00 00
  can0  694   [8]  03 7F 22 31 55 55 55 55
  can0  684   [8]  03 22 03 B1 00 00 00 00
  can0  694   [8]  03 7F 22 31 55 55 55 55
  can0  684   [8]  03 22 03 B2 00 00 00 00
  can0  694   [8]  03 7F 22 31 55 55 55 55
  can0  684   [8]  03 22 03 B3 00 00 00 00
  can0  694   [8]  03 7F 22 31 55 55 55 55
  can0  684   [8]  03 22 03 B4 00 00 00 00
  can0  694   [8]  03 7F 22 31 55 55 55 55
  can0  684   [8]  03 22 03 B5 00 00 00 00
  can0  694   [8]  03 7F 22 31 55 55 55 55
  can0  684   [8]  03 22 03 B6 00 00 00 00
  can0  694   [8]  03 7F 22 31 55 55 55 55
  can0  684   [8]  03 22 03 B7 00 00 00 00
  can0  694   [8]  03 7F 22 31 55 55 55 55
  can0  684   [8]  03 22 03 B8 00 00 00 00
  can0  694   [8]  03 7F 22 31 55 55 55 55
  can0  684   [8]  03 22 03 B9 00 00 00 00
  can0  694   [8]  03 7F 22 31 55 55 55 55
  can0  684   [8]  03 22 03 BA 00 00 00 00
  can0  694   [8]  03 7F 22 31 55 55 55 55
  can0  684   [8]  03 22 03 BB 00 00 00 00
  can0  694   [8]  03 7F 22 31 55 55 55 55
  can0  684   [8]  03 22 03 BC 00 00 00 00
  can0  694   [8]  03 7F 22 31 55 55 55 55
  can0  684   [8]  03 22 03 BD 00 00 00 00
  can0  694   [8]  03 7F 22 31 55 55 55 55
  can0  684   [8]  03 22 03 BE 00 00 00 00
  can0  694   [8]  03 7F 22 31 55 55 55 55
  can0  684   [8]  03 22 03 BF 00 00 00 00
  can0  694   [8]  03 7F 22 31 55 55 55 55
  can0  684   [8]  03 22 03 C0 00 00 00 00
  can0  694   [8]  03 7F 22 31 55 55 55 55
  can0  684   [8]  03 22 03 C1 00 00 00 00
  can0  694   [8]  04 62 03 C1 01 55 55 55
  can0  684   [8]  03 22 03 C2 00 00 00 00
  can0  694   [8]  10 0B 62 03 C2 03 00 04
  can0  684   [8]  03 22 03 C3 00 00 00 00
  can0  694   [8]  03 7F 22 31 55 55 55 55
  can0  684   [8]  03 22 03 C4 00 00 00 00
  can0  694   [8]  04 62 03 C4 01 55 55 55
  can0  684   [8]  03 22 03 C5 00 00 00 00
  can0  694   [8]  03 7F 22 31 55 55 55 55
  can0  684   [8]  03 22 03 C6 00 00 00 00
  can0  694   [8]  03 7F 22 31 55 55 55 55
  can0  684   [8]  03 22 03 C7 00 00 00 00
  can0  694   [8]  03 7F 22 31 55 55 55 55
  can0  684   [8]  03 22 03 C8 00 00 00 00
  can0  694   [8]  03 7F 22 31 55 55 55 55
  can0  684   [8]  03 22 03 C9 00 00 00 00
  can0  694   [8]  03 7F 22 31 55 55 55 55
  can0  684   [8]  03 22 03 CA 00 00 00 00
  can0  694   [8]  03 7F 22 31 55 55 55 55
  can0  684   [8]  03 22 03 CB 00 00 00 00
  can0  694   [8]  03 7F 22 31 55 55 55 55
  can0  684   [8]  03 22 03 CC 00 00 00 00
  can0  694   [8]  03 7F 22 31 55 55 55 55
  can0  684   [8]  03 22 03 CD 00 00 00 00
  can0  694   [8]  03 7F 22 31 55 55 55 55
  can0  684   [8]  03 22 03 CE 00 00 00 00
  can0  694   [8]  03 7F 22 31 55 55 55 55
  can0  684   [8]  03 22 03 CF 00 00 00 00
  can0  694   [8]  03 7F 22 31 55 55 55 55
  can0  684   [8]  03 22 03 D0 00 00 00 00
  can0  694   [8]  03 7F 22 31 55 55 55 55
  can0  684   [8]  03 22 03 D1 00 00 00 00
  can0  694   [8]  03 7F 22 31 55 55 55 55
  can0  684   [8]  03 22 03 D2 00 00 00 00
  can0  694   [8]  03 7F 22 31 55 55 55 55
  can0  684   [8]  03 22 03 D3 00 00 00 00
  can0  694   [8]  03 7F 22 31 55 55 55 55
  can0  684   [8]  03 22 03 D4 00 00 00 00
  can0  694   [8]  03 7F 22 31 55 55 55 55
  can0  684   [8]  03 22 03 D5 00 00 00 00
  can0  694   [8]  03 7F 22 31 55 55 55 55
  can0  684   [8]  03 22 03 D6 00 00 00 00
  can0  694   [8]  03 7F 22 31 55 55 55 55
  can0  684   [8]  03 22 03 D7 00 00 00 00
  can0  694   [8]  03 7F 22 31 55 55 55 55
  can0  684   [8]  03 22 03 D8 00 00 00 00
  can0  694   [8]  03 7F 22 31 55 55 55 55
  can0  684   [8]  03 22 03 D9 00 00 00 00
  can0  694   [8]  03 7F 22 31 55 55 55 55
  can0  684   [8]  03 22 03 DA 00 00 00 00
  can0  694   [8]  03 7F 22 31 55 55 55 55
  can0  684   [8]  03 22 03 DB 00 00 00 00
  can0  694   [8]  03 7F 22 31 55 55 55 55
  can0  684   [8]  03 22 03 DC 00 00 00 00
  can0  694   [8]  03 7F 22 31 55 55 55 55
  can0  684   [8]  03 22 03 DD 00 00 00 00
  can0  694   [8]  03 7F 22 31 55 55 55 55
  can0  684   [8]  03 22 03 DE 00 00 00 00
  can0  694   [8]  03 7F 22 31 55 55 55 55
  can0  684   [8]  03 22 03 DF 00 00 00 00
  can0  694   [8]  03 7F 22 31 55 55 55 55
  can0  684   [8]  03 22 03 E0 00 00 00 00
  can0  694   [8]  03 7F 22 31 55 55 55 55
  can0  684   [8]  03 22 03 E1 00 00 00 00
  can0  694   [8]  03 7F 22 31 55 55 55 55
  can0  684   [8]  03 22 03 E2 00 00 00 00
  can0  694   [8]  03 7F 22 31 55 55 55 55
  can0  684   [8]  03 22 03 E3 00 00 00 00
  can0  694   [8]  03 7F 22 31 55 55 55 55
  can0  684   [8]  03 22 03 E4 00 00 00 00
  can0  694   [8]  03 7F 22 31 55 55 55 55
  can0  684   [8]  03 22 03 E5 00 00 00 00
  can0  694   [8]  03 7F 22 31 55 55 55 55
  can0  684   [8]  03 22 03 E6 00 00 00 00
  can0  694   [8]  03 7F 22 31 55 55 55 55
  can0  684   [8]  03 22 03 E7 00 00 00 00
  can0  694   [8]  03 7F 22 31 55 55 55 55
  can0  684   [8]  03 22 03 E8 00 00 00 00
  can0  694   [8]  03 7F 22 31 55 55 55 55
  can0  684   [8]  03 22 03 E9 00 00 00 00
  can0  694   [8]  03 7F 22 31 55 55 55 55
  can0  684   [8]  03 22 03 EA 00 00 00 00
  can0  694   [8]  03 7F 22 31 55 55 55 55
  can0  684   [8]  03 22 03 EB 00 00 00 00
  can0  694   [8]  03 7F 22 31 55 55 55 55
  can0  684   [8]  03 22 03 EC 00 00 00 00
  can0  694   [8]  03 7F 22 31 55 55 55 55
  can0  684   [8]  03 22 03 ED 00 00 00 00
  can0  694   [8]  03 7F 22 31 55 55 55 55
  can0  684   [8]  03 22 03 EE 00 00 00 00
  can0  694   [8]  03 7F 22 31 55 55 55 55
  can0  684   [8]  03 22 03 EF 00 00 00 00
  can0  694   [8]  03 7F 22 31 55 55 55 55
  can0  684   [8]  03 22 03 F0 00 00 00 00
  can0  694   [8]  03 7F 22 31 55 55 55 55
  can0  684   [8]  03 22 03 F1 00 00 00 00
  can0  694   [8]  03 7F 22 31 55 55 55 55
  can0  684   [8]  03 22 03 F2 00 00 00 00
  can0  694   [8]  03 7F 22 31 55 55 55 55
  can0  684   [8]  03 22 03 F3 00 00 00 00
  can0  694   [8]  03 7F 22 31 55 55 55 55
  can0  684   [8]  03 22 03 F4 00 00 00 00
  can0  694   [8]  03 7F 22 31 55 55 55 55
  can0  684   [8]  03 22 03 F5 00 00 00 00
  can0  694   [8]  03 7F 22 31 55 55 55 55
  can0  684   [8]  03 22 03 F6 00 00 00 00
  can0  694   [8]  03 7F 22 31 55 55 55 55
  can0  684   [8]  03 22 03 F7 00 00 00 00
  can0  694   [8]  03 7F 22 31 55 55 55 55
  can0  684   [8]  03 22 03 F8 00 00 00 00
  can0  694   [8]  03 7F 22 31 55 55 55 55
  can0  684   [8]  03 22 03 F9 00 00 00 00
  can0  694   [8]  03 7F 22 31 55 55 55 55
  can0  684   [8]  03 22 03 FA 00 00 00 00
  can0  694   [8]  03 7F 22 31 55 55 55 55
  can0  684   [8]  03 22 03 FB 00 00 00 00
  can0  694   [8]  03 7F 22 31 55 55 55 55
  can0  684   [8]  03 22 03 FC 00 00 00 00
  can0  694   [8]  03 7F 22 31 55 55 55 55
  can0  684   [8]  03 22 03 FD 00 00 00 00
  can0  694   [8]  03 7F 22 31 55 55 55 55
  can0  684   [8]  03 22 03 FE 00 00 00 00
  can0  694   [8]  03 7F 22 31 55 55 55 55
  can0  684   [8]  03 22 03 FF 00 00 00 00
  can0  694   [8]  03 7F 22 31 55 55 55 55
  can0  684   [8]  03 22 04 00 00 00 00 00
  can0  694   [8]  03 7F 22 31 55 55 55 55
  can0  684   [8]  03 22 04 01 00 00 00 00
  can0  694   [8]  03 7F 22 31 55 55 55 55
  can0  684   [8]  03 22 04 02 00 00 00 00
  can0  694   [8]  03 7F 22 31 55 55 55 55
  can0  684   [8]  03 22 04 03 00 00 00 00
  can0  694   [8]  03 7F 22 31 55 55 55 55
  can0  684   [8]  03 22 04 04 00 00 00 00
  can0  694   [8]  03 7F 22 31 55 55 55 55
  can0  684   [8]  03 22 04 05 00 00 00 00
  can0  694   [8]  03 7F 22 31 55 55 55 55
  can0  684   [8]  03 22 04 06 00 00 00 00
  can0  694   [8]  03 7F 22 31 55 55 55 55
  can0  684   [8]  03 22 04 07 00 00 00 00
  can0  694   [8]  03 7F 22 31 55 55 55 55
  can0  684   [8]  03 22 04 08 00 00 00 00
  can0  694   [8]  03 7F 22 31 55 55 55 55
  can0  684   [8]  03 22 04 09 00 00 00 00
  can0  694   [8]  03 7F 22 31 55 55 55 55
  can0  684   [8]  03 22 04 0A 00 00 00 00
  can0  694   [8]  03 7F 22 31 55 55 55 55
  can0  684   [8]  03 22 04 0B 00 00 00 00
  can0  694   [8]  03 7F 22 31 55 55 55 55
  can0  684   [8]  03 22 04 0C 00 00 00 00
  can0  694   [8]  03 7F 22 31 55 55 55 55
  can0  684   [8]  03 22 04 0D 00 00 00 00
  can0  694   [8]  03 7F 22 31 55 55 55 55
  can0  684   [8]  03 22 04 0E 00 00 00 00
  can0  694   [8]  03 7F 22 31 55 55 55 55
  can0  684   [8]  03 22 04 0F 00 00 00 00
  can0  694   [8]  03 7F 22 31 55 55 55 55
  can0  684   [8]  03 22 04 10 00 00 00 00
  can0  694   [8]  03 7F 22 31 55 55 55 55
  can0  684   [8]  03 22 04 11 00 00 00 00
  can0  694   [8]  03 7F 22 31 55 55 55 55
  can0  684   [8]  03 22 04 12 00 00 00 00
  can0  694   [8]  03 7F 22 31 55 55 55 55
  can0  684   [8]  03 22 04 13 00 00 00 00
  can0  694   [8]  03 7F 22 31 55 55 55 55
  can0  684   [8]  03 22 04 14 00 00 00 00
  can0  694   [8]  03 7F 22 31 55 55 55 55
  can0  684   [8]  03 22 04 15 00 00 00 00
  can0  694   [8]  03 7F 22 31 55 55 55 55
  can0  684   [8]  03 22 04 16 00 00 00 00
  can0  694   [8]  03 7F 22 31 55 55 55 55
  can0  684   [8]  03 22 04 17 00 00 00 00
  can0  694   [8]  03 7F 22 31 55 55 55 55
  can0  684   [8]  03 22 04 18 00 00 00 00
  can0  694   [8]  03 7F 22 31 55 55 55 55
  can0  684   [8]  03 22 04 19 00 00 00 00
  can0  694   [8]  03 7F 22 31 55 55 55 55
  can0  684   [8]  03 22 04 1A 00 00 00 00
  can0  694   [8]  03 7F 22 31 55 55 55 55
  can0  684   [8]  03 22 04 1B 00 00 00 00
  can0  694   [8]  03 7F 22 31 55 55 55 55
  can0  684   [8]  03 22 04 1C 00 00 00 00
  can0  694   [8]  03 7F 22 31 55 55 55 55
  can0  684   [8]  03 22 04 1D 00 00 00 00
  can0  694   [8]  03 7F 22 31 55 55 55 55
  can0  684   [8]  03 22 04 1E 00 00 00 00
  can0  694   [8]  03 7F 22 31 55 55 55 55
  can0  684   [8]  03 22 04 1F 00 00 00 00
  can0  694   [8]  03 7F 22 31 55 55 55 55
  can0  684   [8]  03 22 04 20 00 00 00 00
  can0  694   [8]  03 7F 22 31 55 55 55 55
  can0  684   [8]  03 22 04 21 00 00 00 00
  can0  694   [8]  03 7F 22 31 55 55 55 55
  can0  684   [8]  03 22 04 22 00 00 00 00
  can0  694   [8]  03 7F 22 31 55 55 55 55
  can0  684   [8]  03 22 04 23 00 00 00 00
  can0  694   [8]  03 7F 22 31 55 55 55 55
  can0  684   [8]  03 22 04 24 00 00 00 00
  can0  694   [8]  03 7F 22 31 55 55 55 55
  can0  684   [8]  03 22 04 25 00 00 00 00
  can0  694   [8]  03 7F 22 31 55 55 55 55
  can0  684   [8]  03 22 04 26 00 00 00 00
  can0  694   [8]  03 7F 22 31 55 55 55 55
  can0  684   [8]  03 22 04 27 00 00 00 00
  can0  694   [8]  03 7F 22 31 55 55 55 55
  can0  684   [8]  03 22 04 28 00 00 00 00
  can0  694   [8]  03 7F 22 31 55 55 55 55
  can0  684   [8]  03 22 04 29 00 00 00 00
  can0  694   [8]  03 7F 22 31 55 55 55 55
  can0  684   [8]  03 22 04 2A 00 00 00 00
  can0  694   [8]  03 7F 22 31 55 55 55 55
  can0  684   [8]  03 22 04 2B 00 00 00 00
  can0  694   [8]  03 7F 22 31 55 55 55 55
  can0  684   [8]  03 22 04 2C 00 00 00 00
  can0  694   [8]  03 7F 22 31 55 55 55 55
  can0  684   [8]  03 22 04 2D 00 00 00 00
  can0  694   [8]  03 7F 22 31 55 55 55 55
  can0  684   [8]  03 22 04 2E 00 00 00 00
  can0  694   [8]  03 7F 22 31 55 55 55 55
  can0  684   [8]  03 22 04 2F 00 00 00 00
  can0  694   [8]  03 7F 22 31 55 55 55 55
  can0  684   [8]  03 22 04 30 00 00 00 00
  can0  694   [8]  03 7F 22 31 55 55 55 55
  can0  684   [8]  03 22 04 31 00 00 00 00
  can0  694   [8]  03 7F 22 31 55 55 55 55
  can0  684   [8]  03 22 04 32 00 00 00 00
  can0  694   [8]  03 7F 22 31 55 55 55 55
  can0  684   [8]  03 22 04 33 00 00 00 00
  can0  694   [8]  03 7F 22 31 55 55 55 55
  can0  684   [8]  03 22 04 34 00 00 00 00
  can0  694   [8]  03 7F 22 31 55 55 55 55
  can0  684   [8]  03 22 04 35 00 00 00 00
  can0  694   [8]  03 7F 22 31 55 55 55 55
  can0  684   [8]  03 22 04 36 00 00 00 00
  can0  694   [8]  03 7F 22 31 55 55 55 55
  can0  684   [8]  03 22 04 37 00 00 00 00
  can0  694   [8]  03 7F 22 31 55 55 55 55
  can0  684   [8]  03 22 04 38 00 00 00 00
  can0  694   [8]  03 7F 22 31 55 55 55 55
  can0  684   [8]  03 22 04 39 00 00 00 00
  can0  694   [8]  03 7F 22 31 55 55 55 55
  can0  684   [8]  03 22 04 3A 00 00 00 00
  can0  694   [8]  03 7F 22 31 55 55 55 55
  can0  684   [8]  03 22 04 3B 00 00 00 00
  can0  694   [8]  03 7F 22 31 55 55 55 55
  can0  684   [8]  03 22 04 3C 00 00 00 00
  can0  694   [8]  03 7F 22 31 55 55 55 55
  can0  684   [8]  03 22 04 3D 00 00 00 00
  can0  694   [8]  03 7F 22 31 55 55 55 55
  can0  684   [8]  03 22 04 3E 00 00 00 00
  can0  694   [8]  03 7F 22 31 55 55 55 55
  can0  684   [8]  03 22 04 3F 00 00 00 00
  can0  694   [8]  03 7F 22 31 55 55 55 55
  can0  684   [8]  03 22 04 40 00 00 00 00
  can0  694   [8]  03 7F 22 31 55 55 55 55
  can0  684   [8]  03 22 04 41 00 00 00 00
  can0  694   [8]  03 7F 22 31 55 55 55 55
  can0  684   [8]  03 22 04 42 00 00 00 00
  can0  694   [8]  03 7F 22 31 55 55 55 55
  can0  684   [8]  03 22 04 43 00 00 00 00
  can0  694   [8]  03 7F 22 31 55 55 55 55
  can0  684   [8]  03 22 04 44 00 00 00 00
  can0  694   [8]  03 7F 22 31 55 55 55 55
  can0  684   [8]  03 22 04 45 00 00 00 00
  can0  694   [8]  03 7F 22 31 55 55 55 55
  can0  684   [8]  03 22 04 46 00 00 00 00
  can0  694   [8]  03 7F 22 31 55 55 55 55
  can0  684   [8]  03 22 04 47 00 00 00 00
  can0  694   [8]  03 7F 22 31 55 55 55 55
  can0  684   [8]  03 22 04 48 00 00 00 00
  can0  694   [8]  03 7F 22 31 55 55 55 55
  can0  684   [8]  03 22 04 49 00 00 00 00
  can0  694   [8]  03 7F 22 31 55 55 55 55
  can0  684   [8]  03 22 04 4A 00 00 00 00
  can0  694   [8]  03 7F 22 31 55 55 55 55
  can0  684   [8]  03 22 04 4B 00 00 00 00
  can0  694   [8]  03 7F 22 31 55 55 55 55
  can0  684   [8]  03 22 04 4C 00 00 00 00
  can0  694   [8]  03 7F 22 31 55 55 55 55
  can0  684   [8]  03 22 04 4D 00 00 00 00
  can0  694   [8]  03 7F 22 31 55 55 55 55
  can0  684   [8]  03 22 04 4E 00 00 00 00
  can0  694   [8]  03 7F 22 31 55 55 55 55
  can0  684   [8]  03 22 04 4F 00 00 00 00
  can0  694   [8]  03 7F 22 31 55 55 55 55
  can0  684   [8]  03 22 04 50 00 00 00 00
  can0  694   [8]  03 7F 22 31 55 55 55 55
  can0  684   [8]  03 22 04 51 00 00 00 00
  can0  694   [8]  03 7F 22 31 55 55 55 55
  can0  684   [8]  03 22 04 52 00 00 00 00
  can0  694   [8]  03 7F 22 31 55 55 55 55
  can0  684   [8]  03 22 04 53 00 00 00 00
  can0  694   [8]  03 7F 22 31 55 55 55 55
  can0  684   [8]  03 22 04 54 00 00 00 00
  can0  694   [8]  03 7F 22 31 55 55 55 55
  can0  684   [8]  03 22 04 55 00 00 00 00
  can0  694   [8]  03 7F 22 31 55 55 55 55
  can0  684   [8]  03 22 04 56 00 00 00 00
  can0  694   [8]  03 7F 22 31 55 55 55 55
  can0  684   [8]  03 22 04 57 00 00 00 00
  can0  694   [8]  03 7F 22 31 55 55 55 55
  can0  684   [8]  03 22 04 58 00 00 00 00
  can0  694   [8]  03 7F 22 31 55 55 55 55
  can0  684   [8]  03 22 04 59 00 00 00 00
  can0  694   [8]  03 7F 22 31 55 55 55 55
  can0  684   [8]  03 22 04 5A 00 00 00 00
  can0  694   [8]  03 7F 22 31 55 55 55 55
  can0  684   [8]  03 22 04 5B 00 00 00 00
  can0  694   [8]  03 7F 22 31 55 55 55 55
  can0  684   [8]  03 22 04 5C 00 00 00 00
  can0  694   [8]  03 7F 22 31 55 55 55 55
  can0  684   [8]  03 22 04 5D 00 00 00 00
  can0  694   [8]  03 7F 22 31 55 55 55 55
  can0  684   [8]  03 22 04 5E 00 00 00 00
  can0  694   [8]  03 7F 22 31 55 55 55 55
  can0  684   [8]  03 22 04 5F 00 00 00 00
  can0  694   [8]  03 7F 22 31 55 55 55 55
  can0  684   [8]  03 22 04 60 00 00 00 00
  can0  694   [8]  03 7F 22 31 55 55 55 55
  can0  684   [8]  03 22 04 61 00 00 00 00
  can0  694   [8]  03 7F 22 31 55 55 55 55
  can0  684   [8]  03 22 04 62 00 00 00 00
  can0  694   [8]  03 7F 22 31 55 55 55 55
  can0  684   [8]  03 22 04 63 00 00 00 00
  can0  694   [8]  03 7F 22 31 55 55 55 55
  can0  684   [8]  03 22 04 64 00 00 00 00
  can0  694   [8]  03 7F 22 31 55 55 55 55
  can0  684   [8]  03 22 04 65 00 00 00 00
  can0  694   [8]  03 7F 22 31 55 55 55 55
  can0  684   [8]  03 22 04 66 00 00 00 00
  can0  694   [8]  03 7F 22 31 55 55 55 55
  can0  684   [8]  03 22 04 67 00 00 00 00
  can0  694   [8]  03 7F 22 31 55 55 55 55
  can0  684   [8]  03 22 04 68 00 00 00 00
  can0  694   [8]  03 7F 22 31 55 55 55 55
  can0  684   [8]  03 22 04 69 00 00 00 00
  can0  694   [8]  03 7F 22 31 55 55 55 55
  can0  684   [8]  03 22 04 6A 00 00 00 00
  can0  694   [8]  03 7F 22 31 55 55 55 55
  can0  684   [8]  03 22 04 6B 00 00 00 00
  can0  694   [8]  03 7F 22 31 55 55 55 55
  can0  684   [8]  03 22 04 6C 00 00 00 00
  can0  694   [8]  03 7F 22 31 55 55 55 55
  can0  684   [8]  03 22 04 6D 00 00 00 00
  can0  694   [8]  03 7F 22 31 55 55 55 55
  can0  684   [8]  03 22 04 6E 00 00 00 00
  can0  694   [8]  03 7F 22 31 55 55 55 55
  can0  684   [8]  03 22 04 6F 00 00 00 00
  can0  694   [8]  03 7F 22 31 55 55 55 55
  can0  684   [8]  03 22 04 70 00 00 00 00
  can0  694   [8]  03 7F 22 31 55 55 55 55
  can0  684   [8]  03 22 04 71 00 00 00 00
  can0  694   [8]  03 7F 22 31 55 55 55 55
  can0  684   [8]  03 22 04 72 00 00 00 00
  can0  694   [8]  03 7F 22 31 55 55 55 55
  can0  684   [8]  03 22 04 73 00 00 00 00
  can0  694   [8]  03 7F 22 31 55 55 55 55
  can0  684   [8]  03 22 04 74 00 00 00 00
  can0  694   [8]  03 7F 22 31 55 55 55 55
  can0  684   [8]  03 22 04 75 00 00 00 00
  can0  694   [8]  03 7F 22 31 55 55 55 55
  can0  684   [8]  03 22 04 76 00 00 00 00
  can0  694   [8]  03 7F 22 31 55 55 55 55
  can0  684   [8]  03 22 04 77 00 00 00 00
  can0  694   [8]  03 7F 22 31 55 55 55 55
  can0  684   [8]  03 22 04 78 00 00 00 00
  can0  694   [8]  03 7F 22 31 55 55 55 55
  can0  684   [8]  03 22 04 79 00 00 00 00
  can0  694   [8]  03 7F 22 31 55 55 55 55
  can0  684   [8]  03 22 04 7A 00 00 00 00
  can0  694   [8]  03 7F 22 31 55 55 55 55
  can0  684   [8]  03 22 04 7B 00 00 00 00
  can0  694   [8]  03 7F 22 31 55 55 55 55
  can0  684   [8]  03 22 04 7C 00 00 00 00
  can0  694   [8]  03 7F 22 31 55 55 55 55
  can0  684   [8]  03 22 04 7D 00 00 00 00
  can0  694   [8]  03 7F 22 31 55 55 55 55
  can0  684   [8]  03 22 04 7E 00 00 00 00
  can0  694   [8]  03 7F 22 31 55 55 55 55
  can0  684   [8]  03 22 04 7F 00 00 00 00
  can0  694   [8]  03 7F 22 31 55 55 55 55
  can0  684   [8]  03 22 04 80 00 00 00 00
  can0  694   [8]  03 7F 22 31 55 55 55 55
  can0  684   [8]  03 22 04 81 00 00 00 00
  can0  694   [8]  03 7F 22 31 55 55 55 55
  can0  684   [8]  03 22 04 82 00 00 00 00
  can0  694   [8]  03 7F 22 31 55 55 55 55
  can0  684   [8]  03 22 04 83 00 00 00 00
  can0  694   [8]  03 7F 22 31 55 55 55 55
  can0  684   [8]  03 22 04 84 00 00 00 00
  can0  694   [8]  03 7F 22 31 55 55 55 55
  can0  684   [8]  03 22 04 85 00 00 00 00
  can0  694   [8]  03 7F 22 31 55 55 55 55
  can0  684   [8]  03 22 04 86 00 00 00 00
  can0  694   [8]  03 7F 22 31 55 55 55 55
  can0  684   [8]  03 22 04 87 00 00 00 00
  can0  694   [8]  03 7F 22 31 55 55 55 55
  can0  684   [8]  03 22 04 88 00 00 00 00
  can0  694   [8]  03 7F 22 31 55 55 55 55
  can0  684   [8]  03 22 04 89 00 00 00 00
  can0  694   [8]  03 7F 22 31 55 55 55 55
  can0  684   [8]  03 22 04 8A 00 00 00 00
  can0  694   [8]  03 7F 22 31 55 55 55 55
  can0  684   [8]  03 22 04 8B 00 00 00 00
  can0  694   [8]  03 7F 22 31 55 55 55 55
  can0  684   [8]  03 22 04 8C 00 00 00 00
  can0  694   [8]  03 7F 22 31 55 55 55 55
  can0  684   [8]  03 22 04 8D 00 00 00 00
  can0  694   [8]  03 7F 22 31 55 55 55 55
  can0  684   [8]  03 22 04 8E 00 00 00 00
  can0  694   [8]  03 7F 22 31 55 55 55 55
  can0  684   [8]  03 22 04 8F 00 00 00 00
  can0  694   [8]  03 7F 22 31 55 55 55 55
  can0  684   [8]  03 22 04 90 00 00 00 00
  can0  694   [8]  03 7F 22 31 55 55 55 55
  can0  684   [8]  03 22 04 91 00 00 00 00
  can0  694   [8]  03 7F 22 31 55 55 55 55
  can0  684   [8]  03 22 04 92 00 00 00 00
  can0  694   [8]  03 7F 22 31 55 55 55 55
  can0  684   [8]  03 22 04 93 00 00 00 00
  can0  694   [8]  03 7F 22 31 55 55 55 55
  can0  684   [8]  03 22 04 94 00 00 00 00
  can0  694   [8]  03 7F 22 31 55 55 55 55
  can0  684   [8]  03 22 04 95 00 00 00 00
  can0  694   [8]  03 7F 22 31 55 55 55 55
  can0  684   [8]  03 22 04 96 00 00 00 00
  can0  694   [8]  03 7F 22 31 55 55 55 55
  can0  684   [8]  03 22 04 97 00 00 00 00
  can0  694   [8]  03 7F 22 31 55 55 55 55
  can0  684   [8]  03 22 04 98 00 00 00 00
  can0  694   [8]  03 7F 22 31 55 55 55 55
  can0  684   [8]  03 22 04 99 00 00 00 00
  can0  694   [8]  03 7F 22 31 55 55 55 55
  can0  684   [8]  03 22 04 9A 00 00 00 00
  can0  694   [8]  03 7F 22 31 55 55 55 55
  can0  684   [8]  03 22 04 9B 00 00 00 00
  can0  694   [8]  03 7F 22 31 55 55 55 55
  can0  684   [8]  03 22 04 9C 00 00 00 00
  can0  694   [8]  03 7F 22 31 55 55 55 55
  can0  684   [8]  03 22 04 9D 00 00 00 00
  can0  694   [8]  03 7F 22 31 55 55 55 55
  can0  684   [8]  03 22 04 9E 00 00 00 00
  can0  694   [8]  03 7F 22 31 55 55 55 55
  can0  684   [8]  03 22 04 9F 00 00 00 00
  can0  694   [8]  03 7F 22 31 55 55 55 55
  can0  684   [8]  03 22 04 A0 00 00 00 00
  can0  694   [8]  03 7F 22 31 55 55 55 55
  can0  684   [8]  03 22 04 A1 00 00 00 00
  can0  694   [8]  03 7F 22 31 55 55 55 55
  can0  684   [8]  03 22 04 A2 00 00 00 00
  can0  694   [8]  03 7F 22 31 55 55 55 55
  can0  684   [8]  03 22 04 A3 00 00 00 00
  can0  694   [8]  03 7F 22 31 55 55 55 55
  can0  684   [8]  03 22 04 A4 00 00 00 00
  can0  694   [8]  03 7F 22 31 55 55 55 55
  can0  684   [8]  03 22 04 A5 00 00 00 00
  can0  694   [8]  03 7F 22 31 55 55 55 55
  can0  684   [8]  03 22 04 A6 00 00 00 00
  can0  694   [8]  03 7F 22 31 55 55 55 55
  can0  684   [8]  03 22 04 A7 00 00 00 00
  can0  694   [8]  03 7F 22 31 55 55 55 55
  can0  684   [8]  03 22 04 A8 00 00 00 00
  can0  694   [8]  03 7F 22 31 55 55 55 55
  can0  684   [8]  03 22 04 A9 00 00 00 00
  can0  694   [8]  03 7F 22 31 55 55 55 55
  can0  684   [8]  03 22 04 AA 00 00 00 00
  can0  694   [8]  03 7F 22 31 55 55 55 55
  can0  684   [8]  03 22 04 AB 00 00 00 00
  can0  694   [8]  03 7F 22 31 55 55 55 55
  can0  684   [8]  03 22 04 AC 00 00 00 00
  can0  694   [8]  03 7F 22 31 55 55 55 55
  can0  684   [8]  03 22 04 AD 00 00 00 00
  can0  694   [8]  03 7F 22 31 55 55 55 55
  can0  684   [8]  03 22 04 AE 00 00 00 00
  can0  694   [8]  03 7F 22 31 55 55 55 55
  can0  684   [8]  03 22 04 AF 00 00 00 00
  can0  694   [8]  03 7F 22 31 55 55 55 55
  can0  684   [8]  03 22 04 B0 00 00 00 00
  can0  694   [8]  03 7F 22 31 55 55 55 55
  can0  684   [8]  03 22 04 B1 00 00 00 00
  can0  694   [8]  03 7F 22 31 55 55 55 55
  can0  684   [8]  03 22 04 B2 00 00 00 00
  can0  694   [8]  03 7F 22 31 55 55 55 55
  can0  684   [8]  03 22 04 B3 00 00 00 00
  can0  694   [8]  03 7F 22 31 55 55 55 55
  can0  684   [8]  03 22 04 B4 00 00 00 00
  can0  694   [8]  03 7F 22 31 55 55 55 55
  can0  684   [8]  03 22 04 B5 00 00 00 00
  can0  694   [8]  03 7F 22 31 55 55 55 55
  can0  684   [8]  03 22 04 B6 00 00 00 00
  can0  694   [8]  03 7F 22 31 55 55 55 55
  can0  684   [8]  03 22 04 B7 00 00 00 00
  can0  694   [8]  03 7F 22 31 55 55 55 55
  can0  684   [8]  03 22 04 B8 00 00 00 00
  can0  694   [8]  03 7F 22 31 55 55 55 55
  can0  684   [8]  03 22 04 B9 00 00 00 00
  can0  694   [8]  03 7F 22 31 55 55 55 55
  can0  684   [8]  03 22 04 BA 00 00 00 00
  can0  694   [8]  03 7F 22 31 55 55 55 55
  can0  684   [8]  03 22 04 BB 00 00 00 00
  can0  694   [8]  03 7F 22 31 55 55 55 55
  can0  684   [8]  03 22 04 BC 00 00 00 00
  can0  694   [8]  03 7F 22 31 55 55 55 55
  can0  684   [8]  03 22 04 BD 00 00 00 00
  can0  694   [8]  03 7F 22 31 55 55 55 55
  can0  684   [8]  03 22 04 BE 00 00 00 00
  can0  694   [8]  03 7F 22 31 55 55 55 55
  can0  684   [8]  03 22 04 BF 00 00 00 00
  can0  694   [8]  03 7F 22 31 55 55 55 55
  can0  684   [8]  03 22 04 C0 00 00 00 00
  can0  694   [8]  03 7F 22 31 55 55 55 55
  can0  684   [8]  03 22 04 C1 00 00 00 00
  can0  694   [8]  03 7F 22 31 55 55 55 55
  can0  684   [8]  03 22 04 C2 00 00 00 00
  can0  694   [8]  03 7F 22 31 55 55 55 55
  can0  684   [8]  03 22 04 C3 00 00 00 00
  can0  694   [8]  03 7F 22 31 55 55 55 55
  can0  684   [8]  03 22 04 C4 00 00 00 00
  can0  694   [8]  03 7F 22 31 55 55 55 55
  can0  684   [8]  03 22 04 C5 00 00 00 00
  can0  694   [8]  03 7F 22 31 55 55 55 55
  can0  684   [8]  03 22 04 C6 00 00 00 00
  can0  694   [8]  03 7F 22 31 55 55 55 55
  can0  684   [8]  03 22 04 C7 00 00 00 00
  can0  694   [8]  03 7F 22 31 55 55 55 55
  can0  684   [8]  03 22 04 C8 00 00 00 00
  can0  694   [8]  03 7F 22 31 55 55 55 55
  can0  684   [8]  03 22 04 C9 00 00 00 00
  can0  694   [8]  03 7F 22 31 55 55 55 55
  can0  684   [8]  03 22 04 CA 00 00 00 00
  can0  694   [8]  03 7F 22 31 55 55 55 55
  can0  684   [8]  03 22 04 CB 00 00 00 00
  can0  694   [8]  03 7F 22 31 55 55 55 55
  can0  684   [8]  03 22 04 CC 00 00 00 00
  can0  694   [8]  03 7F 22 31 55 55 55 55
  can0  684   [8]  03 22 04 CD 00 00 00 00
  can0  694   [8]  03 7F 22 31 55 55 55 55
  can0  684   [8]  03 22 04 CE 00 00 00 00
  can0  694   [8]  03 7F 22 31 55 55 55 55
  can0  684   [8]  03 22 04 CF 00 00 00 00
  can0  694   [8]  03 7F 22 31 55 55 55 55
  can0  684   [8]  03 22 04 D0 00 00 00 00
  can0  694   [8]  03 7F 22 31 55 55 55 55
  can0  684   [8]  03 22 04 D1 00 00 00 00
  can0  694   [8]  03 7F 22 31 55 55 55 55
  can0  684   [8]  03 22 04 D2 00 00 00 00
  can0  694   [8]  03 7F 22 31 55 55 55 55
  can0  684   [8]  03 22 04 D3 00 00 00 00
  can0  694   [8]  03 7F 22 31 55 55 55 55
  can0  684   [8]  03 22 04 D4 00 00 00 00
  can0  694   [8]  03 7F 22 31 55 55 55 55
  can0  684   [8]  03 22 04 D5 00 00 00 00
  can0  694   [8]  03 7F 22 31 55 55 55 55
  can0  684   [8]  03 22 04 D6 00 00 00 00
  can0  694   [8]  03 7F 22 31 55 55 55 55
  can0  684   [8]  03 22 04 D7 00 00 00 00
  can0  694   [8]  03 7F 22 31 55 55 55 55
  can0  684   [8]  03 22 04 D8 00 00 00 00
  can0  694   [8]  03 7F 22 31 55 55 55 55
  can0  684   [8]  03 22 04 D9 00 00 00 00
  can0  694   [8]  03 7F 22 31 55 55 55 55
  can0  684   [8]  03 22 04 DA 00 00 00 00
  can0  694   [8]  03 7F 22 31 55 55 55 55
  can0  684   [8]  03 22 04 DB 00 00 00 00
  can0  694   [8]  03 7F 22 31 55 55 55 55
  can0  684   [8]  03 22 04 DC 00 00 00 00
  can0  694   [8]  03 7F 22 31 55 55 55 55
  can0  684   [8]  03 22 04 DD 00 00 00 00
  can0  694   [8]  03 7F 22 31 55 55 55 55
  can0  684   [8]  03 22 04 DE 00 00 00 00
  can0  694   [8]  03 7F 22 31 55 55 55 55
  can0  684   [8]  03 22 04 DF 00 00 00 00
  can0  694   [8]  03 7F 22 31 55 55 55 55
  can0  684   [8]  03 22 04 E0 00 00 00 00
  can0  694   [8]  03 7F 22 31 55 55 55 55
  can0  684   [8]  03 22 04 E1 00 00 00 00
  can0  694   [8]  03 7F 22 31 55 55 55 55
  can0  684   [8]  03 22 04 E2 00 00 00 00
  can0  694   [8]  03 7F 22 31 55 55 55 55
  can0  684   [8]  03 22 04 E3 00 00 00 00
  can0  694   [8]  03 7F 22 31 55 55 55 55
  can0  684   [8]  03 22 04 E4 00 00 00 00
  can0  694   [8]  03 7F 22 31 55 55 55 55
  can0  684   [8]  03 22 04 E5 00 00 00 00
  can0  694   [8]  03 7F 22 31 55 55 55 55
  can0  684   [8]  03 22 04 E6 00 00 00 00
  can0  694   [8]  03 7F 22 31 55 55 55 55
  can0  684   [8]  03 22 04 E7 00 00 00 00
  can0  694   [8]  03 7F 22 31 55 55 55 55
  can0  684   [8]  03 22 04 E8 00 00 00 00
  can0  694   [8]  03 7F 22 31 55 55 55 55
  can0  684   [8]  03 22 04 E9 00 00 00 00
  can0  694   [8]  03 7F 22 31 55 55 55 55
  can0  684   [8]  03 22 04 EA 00 00 00 00
  can0  694   [8]  03 7F 22 31 55 55 55 55
  can0  684   [8]  03 22 04 EB 00 00 00 00
  can0  694   [8]  03 7F 22 31 55 55 55 55
  can0  684   [8]  03 22 04 EC 00 00 00 00
  can0  694   [8]  03 7F 22 31 55 55 55 55
  can0  684   [8]  03 22 04 ED 00 00 00 00
  can0  694   [8]  03 7F 22 31 55 55 55 55
  can0  684   [8]  03 22 04 EE 00 00 00 00
  can0  694   [8]  03 7F 22 31 55 55 55 55
  can0  684   [8]  03 22 04 EF 00 00 00 00
  can0  694   [8]  03 7F 22 31 55 55 55 55
  can0  684   [8]  03 22 04 F0 00 00 00 00
  can0  694   [8]  03 7F 22 31 55 55 55 55
  can0  684   [8]  03 22 04 F1 00 00 00 00
  can0  694   [8]  03 7F 22 31 55 55 55 55
  can0  684   [8]  03 22 04 F2 00 00 00 00
  can0  694   [8]  03 7F 22 31 55 55 55 55
  can0  684   [8]  03 22 04 F3 00 00 00 00
  can0  694   [8]  03 7F 22 31 55 55 55 55
  can0  684   [8]  03 22 04 F4 00 00 00 00
  can0  694   [8]  03 7F 22 31 55 55 55 55
  can0  684   [8]  03 22 04 F5 00 00 00 00
  can0  694   [8]  03 7F 22 31 55 55 55 55
  can0  684   [8]  03 22 04 F6 00 00 00 00
  can0  694   [8]  03 7F 22 31 55 55 55 55
  can0  684   [8]  03 22 04 F7 00 00 00 00
  can0  694   [8]  03 7F 22 31 55 55 55 55
  can0  684   [8]  03 22 04 F8 00 00 00 00
  can0  694   [8]  03 7F 22 31 55 55 55 55
  can0  684   [8]  03 22 04 F9 00 00 00 00
  can0  694   [8]  03 7F 22 31 55 55 55 55
  can0  684   [8]  03 22 04 FA 00 00 00 00
  can0  694   [8]  03 7F 22 31 55 55 55 55
  can0  684   [8]  03 22 04 FB 00 00 00 00
  can0  694   [8]  03 7F 22 31 55 55 55 55
  can0  684   [8]  03 22 04 FC 00 00 00 00
  can0  694   [8]  03 7F 22 31 55 55 55 55
  can0  684   [8]  03 22 04 FD 00 00 00 00
  can0  694   [8]  03 7F 22 31 55 55 55 55
  can0  684   [8]  03 22 04 FE 00 00 00 00
  can0  694   [8]  03 7F 22 31 55 55 55 55
  can0  684   [8]  03 22 04 FF 00 00 00 00
  can0  694   [8]  03 7F 22 31 55 55 55 55
  can0  684   [8]  03 22 05 00 00 00 00 00
  can0  694   [8]  03 7F 22 31 55 55 55 55
  can0  684   [8]  03 22 05 01 00 00 00 00
  can0  694   [8]  03 7F 22 31 55 55 55 55
  can0  684   [8]  03 22 05 02 00 00 00 00
  can0  694   [8]  03 7F 22 31 55 55 55 55
  can0  684   [8]  03 22 05 03 00 00 00 00
  can0  694   [8]  03 7F 22 31 55 55 55 55
  can0  684   [8]  03 22 05 04 00 00 00 00
  can0  694   [8]  03 7F 22 31 55 55 55 55
  can0  684   [8]  03 22 05 05 00 00 00 00
  can0  694   [8]  03 7F 22 31 55 55 55 55
  can0  684   [8]  03 22 05 06 00 00 00 00
  can0  694   [8]  03 7F 22 31 55 55 55 55
  can0  684   [8]  03 22 05 07 00 00 00 00
  can0  694   [8]  03 7F 22 31 55 55 55 55
  can0  684   [8]  03 22 05 08 00 00 00 00
  can0  694   [8]  03 7F 22 31 55 55 55 55
  can0  684   [8]  03 22 05 09 00 00 00 00
  can0  694   [8]  03 7F 22 31 55 55 55 55
  can0  684   [8]  03 22 05 0A 00 00 00 00
  can0  694   [8]  03 7F 22 31 55 55 55 55
  can0  684   [8]  03 22 05 0B 00 00 00 00
  can0  694   [8]  03 7F 22 31 55 55 55 55
  can0  684   [8]  03 22 05 0C 00 00 00 00
  can0  694   [8]  03 7F 22 31 55 55 55 55
  can0  684   [8]  03 22 05 0D 00 00 00 00
  can0  694   [8]  03 7F 22 31 55 55 55 55
  can0  684   [8]  03 22 05 0E 00 00 00 00
  can0  694   [8]  03 7F 22 31 55 55 55 55
  can0  684   [8]  03 22 05 0F 00 00 00 00
  can0  694   [8]  03 7F 22 31 55 55 55 55
  can0  684   [8]  03 22 05 10 00 00 00 00
  can0  694   [8]  03 7F 22 31 55 55 55 55
  can0  684   [8]  03 22 05 11 00 00 00 00
  can0  694   [8]  03 7F 22 31 55 55 55 55
  can0  684   [8]  03 22 05 12 00 00 00 00
  can0  694   [8]  03 7F 22 31 55 55 55 55
  can0  684   [8]  03 22 05 13 00 00 00 00
  can0  694   [8]  03 7F 22 31 55 55 55 55
  can0  684   [8]  03 22 05 14 00 00 00 00
  can0  694   [8]  03 7F 22 31 55 55 55 55
  can0  684   [8]  03 22 05 15 00 00 00 00
  can0  694   [8]  03 7F 22 31 55 55 55 55
  can0  684   [8]  03 22 05 16 00 00 00 00
  can0  694   [8]  03 7F 22 31 55 55 55 55
  can0  684   [8]  03 22 05 17 00 00 00 00
  can0  694   [8]  03 7F 22 31 55 55 55 55
  can0  684   [8]  03 22 05 18 00 00 00 00
  can0  694   [8]  03 7F 22 31 55 55 55 55
  can0  684   [8]  03 22 05 19 00 00 00 00
  can0  694   [8]  03 7F 22 31 55 55 55 55
  can0  684   [8]  03 22 05 1A 00 00 00 00
  can0  694   [8]  03 7F 22 31 55 55 55 55
  can0  684   [8]  03 22 05 1B 00 00 00 00
  can0  694   [8]  03 7F 22 31 55 55 55 55
  can0  684   [8]  03 22 05 1C 00 00 00 00
  can0  694   [8]  03 7F 22 31 55 55 55 55
  can0  684   [8]  03 22 05 1D 00 00 00 00
  can0  694   [8]  03 7F 22 31 55 55 55 55
  can0  684   [8]  03 22 05 1E 00 00 00 00
  can0  694   [8]  03 7F 22 31 55 55 55 55
  can0  684   [8]  03 22 05 1F 00 00 00 00
  can0  694   [8]  03 7F 22 31 55 55 55 55
  can0  684   [8]  03 22 05 20 00 00 00 00
  can0  694   [8]  03 7F 22 31 55 55 55 55
  can0  684   [8]  03 22 05 21 00 00 00 00
  can0  694   [8]  03 7F 22 31 55 55 55 55
  can0  684   [8]  03 22 05 22 00 00 00 00
  can0  694   [8]  03 7F 22 31 55 55 55 55
  can0  684   [8]  03 22 05 23 00 00 00 00
  can0  694   [8]  03 7F 22 31 55 55 55 55
  can0  684   [8]  03 22 05 24 00 00 00 00
  can0  694   [8]  03 7F 22 31 55 55 55 55
  can0  684   [8]  03 22 05 25 00 00 00 00
  can0  694   [8]  03 7F 22 31 55 55 55 55
  can0  684   [8]  03 22 05 26 00 00 00 00
  can0  694   [8]  03 7F 22 31 55 55 55 55
  can0  684   [8]  03 22 05 27 00 00 00 00
  can0  694   [8]  03 7F 22 31 55 55 55 55
  can0  684   [8]  03 22 05 28 00 00 00 00
  can0  694   [8]  03 7F 22 31 55 55 55 55
  can0  684   [8]  03 22 05 29 00 00 00 00
  can0  694   [8]  03 7F 22 31 55 55 55 55
  can0  684   [8]  03 22 05 2A 00 00 00 00
  can0  694   [8]  03 7F 22 31 55 55 55 55
  can0  684   [8]  03 22 05 2B 00 00 00 00
  can0  694   [8]  03 7F 22 31 55 55 55 55
  can0  684   [8]  03 22 05 2C 00 00 00 00
  can0  694   [8]  03 7F 22 31 55 55 55 55
  can0  684   [8]  03 22 05 2D 00 00 00 00
  can0  694   [8]  03 7F 22 31 55 55 55 55
  can0  684   [8]  03 22 05 2E 00 00 00 00
  can0  694   [8]  03 7F 22 31 55 55 55 55
  can0  684   [8]  03 22 05 2F 00 00 00 00
  can0  694   [8]  03 7F 22 31 55 55 55 55
  can0  684   [8]  03 22 05 30 00 00 00 00
  can0  694   [8]  03 7F 22 31 55 55 55 55
  can0  684   [8]  03 22 05 31 00 00 00 00
  can0  694   [8]  03 7F 22 31 55 55 55 55
  can0  684   [8]  03 22 05 32 00 00 00 00
  can0  694   [8]  03 7F 22 31 55 55 55 55
  can0  684   [8]  03 22 05 33 00 00 00 00
  can0  694   [8]  03 7F 22 31 55 55 55 55
  can0  684   [8]  03 22 05 34 00 00 00 00
  can0  694   [8]  03 7F 22 31 55 55 55 55
  can0  684   [8]  03 22 05 35 00 00 00 00
  can0  694   [8]  03 7F 22 31 55 55 55 55
  can0  684   [8]  03 22 05 36 00 00 00 00
  can0  694   [8]  03 7F 22 31 55 55 55 55
  can0  684   [8]  03 22 05 37 00 00 00 00
  can0  694   [8]  03 7F 22 31 55 55 55 55
  can0  684   [8]  03 22 05 38 00 00 00 00
  can0  694   [8]  03 7F 22 31 55 55 55 55
  can0  684   [8]  03 22 05 39 00 00 00 00
  can0  694   [8]  03 7F 22 31 55 55 55 55
  can0  684   [8]  03 22 05 3A 00 00 00 00
  can0  694   [8]  03 7F 22 31 55 55 55 55
  can0  684   [8]  03 22 05 3B 00 00 00 00
  can0  694   [8]  03 7F 22 31 55 55 55 55
  can0  684   [8]  03 22 05 3C 00 00 00 00
  can0  694   [8]  03 7F 22 31 55 55 55 55
  can0  684   [8]  03 22 05 3D 00 00 00 00
  can0  694   [8]  03 7F 22 31 55 55 55 55
  can0  684   [8]  03 22 05 3E 00 00 00 00
  can0  694   [8]  03 7F 22 31 55 55 55 55
  can0  684   [8]  03 22 05 3F 00 00 00 00
  can0  694   [8]  03 7F 22 31 55 55 55 55
  can0  684   [8]  03 22 05 40 00 00 00 00
  can0  694   [8]  03 7F 22 31 55 55 55 55
  can0  684   [8]  03 22 05 41 00 00 00 00
  can0  694   [8]  03 7F 22 31 55 55 55 55
  can0  684   [8]  03 22 05 42 00 00 00 00
  can0  694   [8]  03 7F 22 31 55 55 55 55
  can0  684   [8]  03 22 05 43 00 00 00 00
  can0  694   [8]  03 7F 22 31 55 55 55 55
  can0  684   [8]  03 22 05 44 00 00 00 00
  can0  694   [8]  03 7F 22 31 55 55 55 55
  can0  684   [8]  03 22 05 45 00 00 00 00
  can0  694   [8]  03 7F 22 31 55 55 55 55
  can0  684   [8]  03 22 05 46 00 00 00 00
  can0  694   [8]  03 7F 22 31 55 55 55 55
  can0  684   [8]  03 22 05 47 00 00 00 00
  can0  694   [8]  03 7F 22 31 55 55 55 55
  can0  684   [8]  03 22 05 48 00 00 00 00
  can0  694   [8]  03 7F 22 31 55 55 55 55
  can0  684   [8]  03 22 05 49 00 00 00 00
  can0  694   [8]  03 7F 22 31 55 55 55 55
  can0  684   [8]  03 22 05 4A 00 00 00 00
  can0  694   [8]  03 7F 22 31 55 55 55 55
  can0  684   [8]  03 22 05 4B 00 00 00 00
  can0  694   [8]  03 7F 22 31 55 55 55 55
  can0  684   [8]  03 22 05 4C 00 00 00 00
  can0  694   [8]  03 7F 22 31 55 55 55 55
  can0  684   [8]  03 22 05 4D 00 00 00 00
  can0  694   [8]  03 7F 22 31 55 55 55 55
  can0  684   [8]  03 22 05 4E 00 00 00 00
  can0  694   [8]  03 7F 22 31 55 55 55 55
  can0  684   [8]  03 22 05 4F 00 00 00 00
  can0  694   [8]  03 7F 22 31 55 55 55 55
  can0  684   [8]  03 22 05 50 00 00 00 00
  can0  694   [8]  03 7F 22 31 55 55 55 55
  can0  684   [8]  03 22 05 51 00 00 00 00
  can0  694   [8]  03 7F 22 31 55 55 55 55
  can0  684   [8]  03 22 05 52 00 00 00 00
  can0  694   [8]  03 7F 22 31 55 55 55 55
  can0  684   [8]  03 22 05 53 00 00 00 00
  can0  694   [8]  03 7F 22 31 55 55 55 55
  can0  684   [8]  03 22 05 54 00 00 00 00
  can0  694   [8]  03 7F 22 31 55 55 55 55
  can0  684   [8]  03 22 05 55 00 00 00 00
  can0  694   [8]  03 7F 22 31 55 55 55 55
  can0  684   [8]  03 22 05 56 00 00 00 00
  can0  694   [8]  03 7F 22 31 55 55 55 55
  can0  684   [8]  03 22 05 57 00 00 00 00
  can0  694   [8]  03 7F 22 31 55 55 55 55
  can0  684   [8]  03 22 05 58 00 00 00 00
  can0  694   [8]  03 7F 22 31 55 55 55 55
  can0  684   [8]  03 22 05 59 00 00 00 00
  can0  694   [8]  03 7F 22 31 55 55 55 55
  can0  684   [8]  03 22 05 5A 00 00 00 00
  can0  694   [8]  03 7F 22 31 55 55 55 55
  can0  684   [8]  03 22 05 5B 00 00 00 00
  can0  694   [8]  03 7F 22 31 55 55 55 55
  can0  684   [8]  03 22 05 5C 00 00 00 00
  can0  694   [8]  03 7F 22 31 55 55 55 55
  can0  684   [8]  03 22 05 5D 00 00 00 00
  can0  694   [8]  03 7F 22 31 55 55 55 55
  can0  684   [8]  03 22 05 5E 00 00 00 00
  can0  694   [8]  03 7F 22 31 55 55 55 55
  can0  684   [8]  03 22 05 5F 00 00 00 00
  can0  694   [8]  03 7F 22 31 55 55 55 55
  can0  684   [8]  03 22 05 60 00 00 00 00
  can0  694   [8]  03 7F 22 31 55 55 55 55
  can0  684   [8]  03 22 05 61 00 00 00 00
  can0  694   [8]  03 7F 22 31 55 55 55 55
  can0  684   [8]  03 22 05 62 00 00 00 00
  can0  694   [8]  03 7F 22 31 55 55 55 55
  can0  684   [8]  03 22 05 63 00 00 00 00
  can0  694   [8]  03 7F 22 31 55 55 55 55
  can0  684   [8]  03 22 05 64 00 00 00 00
  can0  694   [8]  03 7F 22 31 55 55 55 55
  can0  684   [8]  03 22 05 65 00 00 00 00
  can0  694   [8]  03 7F 22 31 55 55 55 55
  can0  684   [8]  03 22 05 66 00 00 00 00
  can0  694   [8]  03 7F 22 31 55 55 55 55
  can0  684   [8]  03 22 05 67 00 00 00 00
  can0  694   [8]  03 7F 22 31 55 55 55 55
  can0  684   [8]  03 22 05 68 00 00 00 00
  can0  694   [8]  03 7F 22 31 55 55 55 55
  can0  684   [8]  03 22 05 69 00 00 00 00
  can0  694   [8]  03 7F 22 31 55 55 55 55
  can0  684   [8]  03 22 05 6A 00 00 00 00
  can0  694   [8]  03 7F 22 31 55 55 55 55
  can0  684   [8]  03 22 05 6B 00 00 00 00
  can0  694   [8]  03 7F 22 31 55 55 55 55
  can0  684   [8]  03 22 05 6C 00 00 00 00
  can0  694   [8]  03 7F 22 31 55 55 55 55
  can0  684   [8]  03 22 05 6D 00 00 00 00
  can0  694   [8]  03 7F 22 31 55 55 55 55
  can0  684   [8]  03 22 05 6E 00 00 00 00
  can0  694   [8]  03 7F 22 31 55 55 55 55
  can0  684   [8]  03 22 05 6F 00 00 00 00
  can0  694   [8]  03 7F 22 31 55 55 55 55
  can0  684   [8]  03 22 05 70 00 00 00 00
  can0  694   [8]  03 7F 22 31 55 55 55 55
  can0  684   [8]  03 22 05 71 00 00 00 00
  can0  694   [8]  03 7F 22 31 55 55 55 55
  can0  684   [8]  03 22 05 72 00 00 00 00
  can0  694   [8]  03 7F 22 31 55 55 55 55
  can0  684   [8]  03 22 05 73 00 00 00 00
  can0  694   [8]  03 7F 22 31 55 55 55 55
  can0  684   [8]  03 22 05 74 00 00 00 00
  can0  694   [8]  03 7F 22 31 55 55 55 55
  can0  684   [8]  03 22 05 75 00 00 00 00
  can0  694   [8]  03 7F 22 31 55 55 55 55
  can0  684   [8]  03 22 05 76 00 00 00 00
  can0  694   [8]  03 7F 22 31 55 55 55 55
  can0  684   [8]  03 22 05 77 00 00 00 00
  can0  694   [8]  03 7F 22 31 55 55 55 55
  can0  684   [8]  03 22 05 78 00 00 00 00
  can0  694   [8]  03 7F 22 31 55 55 55 55
  can0  684   [8]  03 22 05 79 00 00 00 00
  can0  694   [8]  03 7F 22 31 55 55 55 55
  can0  684   [8]  03 22 05 7A 00 00 00 00
  can0  694   [8]  03 7F 22 31 55 55 55 55
  can0  684   [8]  03 22 05 7B 00 00 00 00
  can0  694   [8]  03 7F 22 31 55 55 55 55
  can0  684   [8]  03 22 05 7C 00 00 00 00
  can0  694   [8]  03 7F 22 31 55 55 55 55
  can0  684   [8]  03 22 05 7D 00 00 00 00
  can0  694   [8]  03 7F 22 31 55 55 55 55
  can0  684   [8]  03 22 05 7E 00 00 00 00
  can0  694   [8]  03 7F 22 31 55 55 55 55
  can0  684   [8]  03 22 05 7F 00 00 00 00
  can0  694   [8]  03 7F 22 31 55 55 55 55
  can0  684   [8]  03 22 05 80 00 00 00 00
  can0  694   [8]  03 7F 22 31 55 55 55 55
  can0  684   [8]  03 22 05 81 00 00 00 00
  can0  694   [8]  03 7F 22 31 55 55 55 55
  can0  684   [8]  03 22 05 82 00 00 00 00
  can0  694   [8]  03 7F 22 31 55 55 55 55
  can0  684   [8]  03 22 05 83 00 00 00 00
  can0  694   [8]  03 7F 22 31 55 55 55 55
  can0  684   [8]  03 22 05 84 00 00 00 00
  can0  694   [8]  03 7F 22 31 55 55 55 55
  can0  684   [8]  03 22 05 85 00 00 00 00
  can0  694   [8]  03 7F 22 31 55 55 55 55
  can0  684   [8]  03 22 05 86 00 00 00 00
  can0  694   [8]  03 7F 22 31 55 55 55 55
  can0  684   [8]  03 22 05 87 00 00 00 00
  can0  694   [8]  03 7F 22 31 55 55 55 55
  can0  684   [8]  03 22 05 88 00 00 00 00
  can0  694   [8]  03 7F 22 31 55 55 55 55
  can0  684   [8]  03 22 05 89 00 00 00 00
  can0  694   [8]  03 7F 22 31 55 55 55 55
  can0  684   [8]  03 22 05 8A 00 00 00 00
